[Version] 2.0
# Hz S RI R 2000 2000 4000
[Number of Ports] 3
[Number of Frequencies] 81
[Reference] 2000 2000 4000
[Network Data]
!      Freq              ReS11             ImS11             ReS12             ImS12             ReS13             ImS13             ReS21             ImS21             ReS22             ImS22             ReS23             ImS23             ReS31             ImS31             ReS32             ImS32             ReS33             ImS33      
   3.00000000e+06    9.99999941e-01   -3.50720968e-04    2.22579149e-08    7.67239060e-06   -1.49015867e-08    3.64363603e-06    2.22579149e-08    7.67239060e-06    9.99999941e-01   -3.50720968e-04    1.49015867e-08   -3.64363603e-06   -3.16748762e-08   -7.65887409e-11    3.16748762e-08    7.65887409e-11    3.48449045e-01   -4.55384367e-04
   3.36605536e+06    9.99999920e-01   -3.93515382e-04    2.29598546e-08    8.60856182e-06   -1.87599368e-08    4.08824238e-06    2.29598546e-08    8.60856182e-06    9.99999920e-01   -3.93515382e-04    1.87599368e-08   -4.08824238e-06   -3.98762655e-08   -5.61190403e-11    3.98762655e-08    5.61190403e-11    3.48448990e-01   -5.10949587e-04
   3.77677624e+06    9.99999895e-01   -4.41531496e-04    2.38436208e-08    9.65896321e-06   -2.36172829e-08    4.58710533e-06    2.38436208e-08    9.65896321e-06    9.99999895e-01   -4.41531496e-04    2.36172829e-08   -4.58710533e-06   -5.02011480e-08   -2.08520665e-11    5.02011480e-08    2.08520665e-11    3.48448920e-01   -5.73294759e-04
   4.23761263e+06    9.99999862e-01   -4.95406452e-04    2.49562160e-08    1.08375328e-05   -2.97322736e-08    5.14684780e-06    2.49562160e-08    1.08375328e-05    9.99999862e-01   -4.95406452e-04    2.97322736e-08   -5.14684780e-06   -6.31993180e-08    3.60916169e-11    6.31993180e-08   -3.60916169e-11    3.48448831e-01   -6.43247148e-04
   4.75467958e+06    9.99999822e-01   -5.55855130e-04    2.63568183e-08    1.21599095e-05   -3.74305182e-08    5.77490196e-06    2.63568183e-08    1.21599095e-05    9.99999822e-01   -5.55855130e-04    3.74305182e-08   -5.77490196e-06   -7.95629068e-08    1.24523921e-10    7.95629068e-08   -1.24523921e-10    3.48448720e-01   -7.21734958e-04
   5.33483823e+06    9.99999770e-01   -6.23679642e-04    2.81201611e-08    1.36436401e-05   -4.71219190e-08    6.47960837e-06    2.81201611e-08    1.36436401e-05    9.99999770e-01   -6.23679642e-04    4.71219190e-08   -6.47960837e-06   -1.00163226e-07    2.58410424e-10    1.00163226e-07   -2.58410424e-10    3.48448580e-01   -8.09799640e-04
   5.98578694e+06    9.99999706e-01   -6.99779966e-04    3.03400155e-08    1.53084127e-05   -5.93224874e-08    7.27032746e-06    3.03400155e-08    1.53084127e-05    9.99999706e-01   -6.99779966e-04    5.93224874e-08   -7.27032746e-06   -1.26097146e-07    4.57596676e-10    1.26097146e-07   -4.57596676e-10    3.48448404e-01   -9.08609715e-04
   6.71616342e+06    9.99999625e-01   -7.85165891e-04    3.31346604e-08    1.71763173e-05   -7.46818043e-08    8.15756488e-06    3.31346604e-08    1.71763173e-05    9.99999625e-01   -7.85165891e-04    7.46818043e-08   -8.15756488e-06   -1.58745467e-07    7.50248097e-10    1.58745467e-07   -7.50248097e-10    3.48448182e-01   -1.01947627e-03
   7.53565929e+06    9.99999522e-01   -8.80970414e-04    3.66528406e-08    1.92721393e-05   -9.40175809e-08    9.15311250e-06    3.66528406e-08    1.92721393e-05    9.99999522e-01   -8.80970414e-04    9.40175809e-08   -9.15311250e-06   -1.99846400e-07    1.17629795e-09    1.99846400e-07   -1.17629795e-09    3.48447903e-01   -1.14387033e-03
   8.45514879e+06    9.99999394e-01   -9.88464772e-04    4.10820702e-08    2.16236884e-05   -1.18359156e-07    1.02702071e-05    4.10820702e-08    2.16236884e-05    9.99999394e-01   -9.88464772e-04    1.18359156e-07   -1.02702071e-05   -2.51588030e-07    1.79231923e-09    2.51588030e-07   -1.79231923e-09    3.48447551e-01   -1.28344242e-03
   9.48683298e+06    9.99999231e-01   -1.10907531e-03    4.66580989e-08    2.42621672e-05   -1.49002234e-07    1.15237094e-05    4.66580989e-08    2.42621672e-05    9.99999231e-01   -1.10907531e-03    1.49002234e-07   -1.15237094e-05   -3.16724700e-07    2.67840784e-09    3.16724700e-07   -2.67840784e-09    3.48447108e-01   -1.44004439e-03
   1.06444017e+07    9.99999027e-01   -1.24440238e-03    5.36779113e-08    2.72225850e-05   -1.87577761e-07    1.29303054e-05    5.36779113e-08    2.72225850e-05    9.99999027e-01   -1.24440238e-03    1.87577761e-07   -1.29303054e-05   -3.98723449e-07    3.94790631e-09    3.98723449e-07   -3.94790631e-09    3.48446551e-01   -1.61575398e-03
   1.19432151e+07    9.99998771e-01   -1.39624162e-03    6.25152938e-08    3.05442228e-05   -2.36138585e-07    1.45087346e-05    6.25152938e-08    3.05442228e-05    9.99998771e-01   -1.39624162e-03    2.36138585e-07   -1.45087346e-05   -5.01948273e-07    5.76113918e-09    5.01948273e-07   -5.76113918e-09    3.48445849e-01   -1.81290241e-03
   1.34005078e+07    9.99998447e-01   -1.56660770e-03    7.36409030e-08    3.42711537e-05   -2.97268465e-07    1.62800471e-05    7.36409030e-08    3.42711537e-05    9.99998447e-01   -1.56660770e-03    2.97268465e-07   -1.62800471e-05   -6.31891936e-07    8.34481317e-09    6.31891936e-07   -8.34481317e-09    3.48444966e-01   -2.03410518e-03
   1.50356170e+07    9.99998040e-01   -1.75776112e-03    8.76470085e-08    3.84528276e-05   -3.74219172e-07    1.82678964e-05    8.76470085e-08    3.84528276e-05    9.99998040e-01   -1.75776112e-03    3.74219172e-07   -1.82678964e-05   -7.95467543e-07    1.20194160e-08    7.95467543e-07   -1.20194160e-08    3.48443854e-01   -2.28229680e-03
   1.68702398e+07    9.99997527e-01   -1.97223811e-03    1.05279741e-07    4.31447269e-05   -4.71082880e-07    2.04988702e-05    1.05279741e-07    4.31447269e-05    9.99997527e-01   -1.97223811e-03    4.71082880e-07   -2.04988702e-05   -1.00137520e-06    1.72379075e-08    1.00137520e-06   -1.72379075e-08    3.48442454e-01   -2.56076959e-03
   1.89287203e+07    9.99996882e-01   -2.21288429e-03    1.27477783e-07    4.84091018e-05   -5.93008853e-07    2.30028697e-05    1.27477783e-07    4.84091018e-05    9.99996882e-01   -2.21288429e-03    5.93008853e-07   -2.30028697e-05   -1.26056300e-06    2.46403505e-08    1.26056300e-06   -2.46403505e-08    3.48440692e-01   -2.87321727e-03
   2.12383735e+07    9.99996070e-01   -2.48289241e-03    1.55423265e-07    5.43157957e-05   -7.46475701e-07    2.58135409e-05    1.55423265e-07    5.43157957e-05    9.99996070e-01   -2.48289241e-03    7.46475701e-07   -2.58135409e-05   -1.58680630e-06    3.51310380e-08    1.58680630e-06   -3.51310380e-08    3.48438473e-01   -3.22378379e-03
   2.38298470e+07    9.99995047e-01   -2.78584460e-03    1.90604242e-07    6.09431699e-05   -9.39633292e-07    2.89687723e-05    1.90604242e-07    6.09431699e-05    9.99995047e-01   -2.78584460e-03    9.39633292e-07   -2.89687723e-05   -1.99743544e-06    4.99873605e-08    1.99743544e-06   -4.99873605e-08    3.48435681e-01   -3.61711805e-03
   2.67375281e+07    9.99993760e-01   -3.12575987e-03    2.34893953e-07    6.83791421e-05   -1.18273185e-06    3.25112686e-05    2.34893953e-07    6.83791421e-05    9.99993760e-01   -3.12575987e-03    1.18273185e-06   -3.25112686e-05   -2.51424930e-06    7.10134459e-08    2.51424930e-06   -7.10134459e-08    3.48432165e-01   -4.05843527e-03
   3.00000000e+07    9.99992140e-01   -3.50714728e-03    2.90650603e-07    7.67223498e-05   -1.48866002e-06    3.64892177e-05    2.90650603e-07    7.67223498e-05    9.99992140e-01   -3.50714728e-03    1.48866002e-06   -3.64892177e-05   -3.16466142e-06    1.00756927e-07    3.16466142e-06   -1.00756927e-07    3.48427740e-01   -4.55358570e-03
   3.36605536e+07    9.99990100e-01   -3.93506566e-03    3.60842586e-07    8.60834552e-05   -1.87361894e-06    4.09570717e-05    3.60842586e-07    8.60834552e-05    9.99990100e-01   -3.93506566e-03    1.87361894e-06   -4.09570717e-05   -3.98313642e-06    1.42814682e-07    3.98313642e-06   -1.42814682e-07    3.48422170e-01   -5.10913155e-03
   3.77677624e+07    9.99987532e-01   -4.41519042e-03    4.49206957e-07    9.65866076e-05   -2.35796552e-06    4.59764691e-05    4.49206957e-07    9.65866076e-05    9.99987532e-01   -4.41519042e-03    2.35796552e-06   -4.59764691e-05   -5.01298842e-06    2.02263887e-07    5.01298842e-06   -2.02263887e-07    3.48415159e-01   -5.73243308e-03
   4.23761263e+07    9.99984300e-01   -4.95388862e-03    5.60447647e-07    1.08371084e-04   -2.96726563e-06    5.16173336e-05    5.60447647e-07    1.08371084e-04    9.99984300e-01   -4.95388862e-03    2.96726563e-06   -5.16173336e-05   -6.30862901e-06    2.86269448e-07    6.30862901e-06   -2.86269448e-07    3.48406334e-01   -6.43174491e-03
   4.75467958e+07    9.99980232e-01   -5.55830291e-03    7.00485938e-07    1.21593122e-04   -3.73360684e-06    5.79591982e-05    7.00485938e-07    1.21593122e-04    9.99980232e-01   -5.55830291e-03    3.73360684e-06   -5.79591982e-05   -7.93837225e-06    4.04939450e-07    7.93837225e-06   -4.04939450e-07    3.48395227e-01   -7.21632359e-03
   5.33483823e+07    9.99975112e-01   -6.23644568e-03    8.76774866e-07    1.36427985e-04   -4.69723005e-06    6.50928167e-05    8.76774866e-07    1.36427985e-04    9.99975112e-01   -6.23644568e-03    4.69723005e-06   -6.50928167e-05   -9.98792611e-06    5.72528928e-07    9.98792611e-06   -5.72528928e-07    3.48381249e-01   -8.09654776e-03
   5.98578694e+07    9.99968668e-01   -6.99730446e-03    1.09869535e-06    1.53072253e-04   -5.90855061e-06    7.31221510e-05    1.09869535e-06    1.53072253e-04    9.99968668e-01   -6.99730446e-03    5.90855061e-06   -7.31221510e-05   -1.25647254e-05    8.09132130e-07    1.25647254e-05   -8.09132130e-07    3.48363658e-01   -9.08405195e-03
   6.71616342e+07    9.99960557e-01   -7.85095988e-03    1.37805410e-06    1.71746410e-04   -7.43065092e-06    8.21668477e-05    1.37805410e-06    1.71746410e-04    9.99960557e-01   -7.85095988e-03    7.43065092e-06   -8.21668477e-05   -1.58032879e-05    1.14305852e-06    1.58032879e-05   -1.14305852e-06    3.48341525e-01   -1.01918756e-02
   7.53565929e+07    9.99950352e-01   -8.80871756e-03    1.72970937e-06    1.92697718e-04   -9.34233657e-06    9.23653642e-05    1.72970937e-06    1.92697718e-04    9.99950352e-01   -8.80871756e-03    9.34233657e-06   -9.23653642e-05   -1.98718020e-05    1.61416357e-06    1.98718020e-05   -1.61416357e-06    3.48313679e-01   -1.14346286e-02
   8.45514879e+07    9.99937510e-01   -9.88325562e-03    2.17235800e-06    2.16203432e-04   -1.17418558e-05    1.03878955e-04    2.17235800e-06    2.16203432e-04    9.99937510e-01   -9.88325562e-03    1.17418558e-05   -1.03878955e-04   -2.49801768e-05    2.27850866e-06    2.49801768e-05   -2.27850866e-06    3.48278652e-01   -1.28286745e-02
   9.48683298e+07    9.99921355e-01   -1.10887893e-02    2.72952370e-06    2.42574390e-04   -1.47513814e-05    1.16896807e-04    2.72952370e-06    2.42574390e-04    9.99921355e-01   -1.10887893e-02    1.47513814e-05   -1.16896807e-04   -3.13897961e-05    3.21486429e-06    3.13897961e-05   -3.21486429e-06    3.48234601e-01   -1.43923327e-02
   1.06444017e+08    9.99901034e-01   -1.24412546e-02    3.43079685e-06    2.72159003e-04   -1.85223401e-05    1.31642713e-04    3.43079685e-06    2.72159003e-04    9.99901034e-01   -1.24412546e-02    1.85223401e-05   -1.31642713e-04   -3.94252026e-05    4.53375686e-06    3.94252026e-05   -4.53375686e-06    3.48179216e-01   -1.61461012e-02
   1.19432151e+08    9.99875479e-01   -1.39585128e-02    4.31339028e-06    3.05347693e-04   -2.32416369e-05    1.48383795e-04    4.31339028e-06    3.05347693e-04    9.99875479e-01   -1.39585128e-02    2.32416369e-05   -1.48383795e-04   -4.94878860e-05    6.39000354e-06    4.94878860e-05   -6.39000354e-06    3.48109603e-01   -1.81128996e-02
   1.34005078e+08    9.99843351e-01   -1.56605779e-02    5.42408568e-06    3.42577808e-04   -2.91387390e-05    1.67441962e-04    5.42408568e-06    3.42577808e-04    9.99843351e-01   -1.56605779e-02    2.91387390e-05   -1.67441962e-04   -6.20722144e-05    8.99999203e-06    6.20722144e-05   -8.99999203e-06    3.48022144e-01   -2.03183338e-02
   1.50356170e+08    9.99802971e-01   -1.75698693e-02    6.82166671e-06    3.84339046e-04   -3.64934442e-05    1.89208987e-04    6.82166671e-06    3.84339046e-04    9.99802971e-01   -1.75698693e-02    3.64934442e-05   -1.89208987e-04   -7.77833041e-05    1.26653477e-05    7.77833041e-05   -1.26653477e-05    3.47912320e-01   -2.27909813e-02
   1.68702398e+08    9.99752241e-01   -1.97114908e-02    8.57994952e-06    4.31179426e-04   -4.56439075e-05    2.14166316e-04    8.57994952e-06    4.31179426e-04    9.99752241e-01   -1.97114908e-02    4.56439075e-05   -2.14166316e-04   -9.73561873e-05    1.78050832e-05    9.73561873e-05   -1.78050832e-05    3.47774496e-01   -2.55626956e-02
   1.89287203e+08    9.99688542e-01   -2.21135397e-02    1.07915473e-05    4.83711796e-04   -5.69941116e-05    2.42910989e-04    1.07915473e-05    4.83711796e-04    9.99688542e-01   -2.21135397e-02    5.69941116e-05   -2.42910989e-04   -1.21674935e-04    2.49988132e-05    1.21674935e-04   -2.49988132e-05    3.47601672e-01   -2.86689283e-02
   2.12383735e+08    9.99608606e-01   -2.48074476e-02    1.35725193e-05    5.42620913e-04   -7.10193607e-05    2.76189268e-04    1.35725193e-05    5.42620913e-04    9.99608606e-01   -2.48074476e-02    7.10193607e-05   -2.76189268e-04   -1.51789304e-04    3.50440597e-05    1.51789304e-04   -3.50440597e-05    3.47385164e-01   -3.21490647e-02
   2.38298470e+08    9.99508371e-01   -2.78283538e-02    1.70680809e-05    6.08671041e-04   -8.82675056e-05    3.14939690e-04    1.70680809e-05    6.08671041e-04    9.99508371e-01   -2.78283538e-02    8.82675056e-05   -3.14939690e-04   -1.88924866e-04    4.90309208e-05    1.88924866e-04   -4.90309208e-05    3.47114248e-01   -3.60467675e-02
   2.67375281e+08    9.99382794e-01   -3.12155167e-02    2.14595485e-05    6.82714051e-04   -1.09352388e-04    3.60347111e-04    2.14595485e-05    6.82714051e-04    9.99382794e-01   -3.12155167e-02    1.09352388e-04   -3.60347111e-04   -2.34480382e-04    6.84371475e-05    2.34480382e-04   -6.84371475e-05    3.46775731e-01   -4.04103255e-02
   3.00000000e+08    9.99225639e-01   -3.50127645e-02    2.69727002e-05    7.65697933e-04   -1.34934444e-04    4.13908725e-04    2.69727002e-05    7.65697933e-04    9.99225639e-01   -3.50127645e-02    1.34934444e-04   -4.13908725e-04   -2.90003276e-04    9.52455538e-05    2.90003276e-04   -9.52455538e-05    3.46353461e-01   -4.52930009e-02
   3.36605536e+08    9.99029209e-01   -3.92689898e-02    3.38876913e-05    8.58675676e-04   -1.65681577e-04    4.77511553e-04    3.38876913e-05    8.58675676e-04    9.99029209e-01   -3.92689898e-02    1.65681577e-04   -4.77511553e-04   -3.57130802e-04    1.32083053e-04    3.57130802e-04   -1.32083053e-04    3.45827771e-01   -5.07533746e-02
   3.77677624e+08    9.98784044e-01   -4.40386964e-02    4.25506141e-05    9.62814474e-04   -2.02201686e-04    5.53518349e-04    4.25506141e-05    9.62814474e-04    9.98784044e-01   -4.40386964e-02    2.02201686e-04   -5.53518349e-04   -4.37481241e-04    1.82375760e-04    4.37481241e-04   -1.82375760e-04    3.45174858e-01   -5.68556940e-02
   4.23761263e+08    9.98478546e-01   -4.93826055e-02    5.33867145e-05    1.07940539e-03   -2.44937141e-04    6.44854635e-04    5.33867145e-05    1.07940539e-03    9.98478546e-01   -4.93826055e-02    2.44937141e-04   -6.44854635e-04   -5.32477684e-04    2.50506881e-04    5.32477684e-04   -2.50506881e-04    3.44366089e-01   -6.36702384e-02
   4.75467958e+08    9.98098531e-01   -5.53683365e-02    6.69152531e-05    1.20987389e-03   -2.94012230e-04    7.55083907e-04    6.69152531e-05    1.20987389e-03    9.98098531e-01   -5.53683365e-02    2.94012230e-04   -7.55083907e-04   -6.43088396e-04    3.41953445e-04    6.43088396e-04   -3.41953445e-04    3.43367222e-01   -7.12737312e-02
   5.33483823e+08    9.97626688e-01   -6.20711783e-02    8.37661381e-05    1.35579230e-03   -3.49028422e-04    8.88451290e-04    8.37661381e-05    1.35579230e-03    9.97626688e-01   -6.20711783e-02    3.49028422e-04   -8.88451290e-04   -7.69475310e-04    4.63365547e-04    7.69475310e-04   -4.63365547e-04    3.42137490e-01   -7.97498408e-02
   5.98578694e+08    9.97041880e-01   -6.95749693e-02    1.04699025e-04    1.51889588e-03   -4.08810668e-04    1.04987008e-03    1.04699025e-04    1.51889588e-03    9.97041880e-01   -6.95749693e-02    4.08810668e-04   -1.04987008e-03   -9.10558171e-04    6.22541119e-04    9.10558171e-04   -6.22541119e-04    3.40628479e-01   -8.91898197e-02
   6.71616342e+08    9.96318258e-01   -7.79730985e-02    1.30626910e-04    1.70110519e-03   -4.71120978e-04    1.24482373e-03    1.30626910e-04    1.70110519e-03    9.96318258e-01   -7.79730985e-02    4.71120978e-04   -1.24482373e-03   -1.06352685e-03    8.28246243e-04    1.06352685e-03   -8.28246243e-04    3.38782633e-01   -9.96933124e-02
   7.53565929e+08    9.95424082e-01   -8.73696281e-02    1.62648628e-04    1.90455785e-03   -5.32371311e-04    1.47916167e-03    1.62648628e-04    1.90455785e-03    9.95424082e-01   -8.73696281e-02    5.32371311e-04   -1.47916167e-03   -1.22336425e-03    1.08984320e-03    1.22336425e-03   -1.08984320e-03    3.36531177e-01   -1.11369306e-01
   8.45514879e+08    9.94320157e-01   -9.78805072e-02    2.02098186e-04    2.13165178e-03   -5.87380705e-04    1.75878417e-03    2.02098186e-04    2.13165178e-03    9.94320157e-01   -9.78805072e-02    5.87380705e-04   -1.75878417e-03   -1.38246685e-03    1.41672092e-03    1.38246685e-03   -1.41672092e-03    3.33791176e-01   -1.24337086e-01
   9.48683298e+08    9.92957762e-01   -1.09634811e-01    2.50622702e-04    2.38509903e-03   -6.29223711e-04    2.08923634e-03    2.50622702e-04    2.38509903e-03    9.92957762e-01   -1.09634811e-01    6.29223711e-04   -2.08923634e-03   -1.53045350e-03    1.81757218e-03    1.53045350e-03   -1.81757218e-03    3.30461439e-01   -1.38726902e-01
   1.06444017e+09    9.91275973e-01   -1.22775897e-01    3.10303607e-04    2.66798313e-03   -6.49201697e-04    2.47525822e-03    3.10303607e-04    2.66798313e-03    9.91275973e-01   -1.22775897e-01    6.49201697e-04   -2.47525822e-03   -1.65422306e-03    2.29961376e-03    1.65422306e-03   -2.29961376e-03    3.26417064e-01   -1.54679861e-01
   1.19432151e+09    9.89198272e-01   -1.37462325e-01    3.83835722e-04    2.98380470e-03   -6.36935614e-04    2.92035084e-03    3.83835722e-04    2.98380470e-03    9.89198272e-01   -1.37462325e-01    6.36935614e-04   -2.92035084e-03   -1.73825751e-03    2.86787343e-03    1.73825751e-03   -2.86787343e-03    3.21502577e-01   -1.72346404e-01
   1.34005078e+09    9.86628390e-01   -1.53868373e-01    4.74774818e-04    3.33649118e-03   -5.80539397e-04    3.42640670e-03    4.74774818e-04    3.33649118e-03    9.86628390e-01   -1.53868373e-01    5.80539397e-04   -3.42640670e-03   -1.76508959e-03    3.52464890e-03    1.76508959e-03   -3.52464890e-03    3.15523859e-01   -1.91882660e-01
   1.50356170e+09    9.83445315e-01   -1.72183964e-01    5.87856523e-04    3.73033928e-03   -4.66806533e-04    3.99341467e-03    5.87856523e-04    3.73033928e-03    9.83445315e-01   -1.72183964e-01    4.66806533e-04   -3.99341467e-03   -1.71579930e-03    4.26917359e-03    1.71579930e-03   -4.26917359e-03    3.08239298e-01   -2.13443953e-01
   1.68702398e+09    9.79497420e-01   -1.92613780e-01    7.29379294e-04    4.16985344e-03   -2.81345852e-04    4.61919602e-03    7.29379294e-04    4.16985344e-03    9.79497420e-01   -1.92613780e-01    2.81345852e-04   -4.61919602e-03   -1.57040308e-03    5.09742668e-03    1.57040308e-03   -5.09742668e-03    2.99350826e-01   -2.37174822e-01
   1.89287203e+09    9.74595614e-01   -2.15375317e-01    9.07632424e-04    4.65944064e-03   -8.64127622e-06    5.29908301e-03    9.07632424e-04    4.65944064e-03    9.74595614e-01   -2.15375317e-01    8.64127623e-06   -5.29908301e-03   -1.30806268e-03    6.00194043e-03    1.30806268e-03   -6.00194043e-03    2.88495692e-01   -2.63194940e-01
