[Version] 2.0
# Hz S RI R 2000 2000 4000
[Number of Ports] 3
[Number of Frequencies] 81
[Reference] 2000 2000 4000
[Network Data]
!      Freq              ReS11             ImS11             ReS12             ImS12             ReS13             ImS13             ReS21             ImS21             ReS22             ImS22             ReS23             ImS23             ReS31             ImS31             ReS32             ImS32             ReS33             ImS33      
   3.00000000e+06    9.99998829e-01   -9.82761265e-04   -6.39921361e-07    3.02474322e-05    1.71451536e-08    1.48856058e-05   -6.39921361e-07    3.02474322e-05    9.99998829e-01   -9.82761265e-04   -1.71451536e-08   -1.48856058e-05    1.43485016e-01   -2.59353761e-04   -1.43485016e-01    2.59353762e-04    6.55069055e-02   -3.91081995e-04
   3.36605536e+06    9.99998526e-01   -1.10267380e-03   -8.05582318e-07    3.39405757e-05    2.15844668e-08    1.67019206e-05   -8.05582318e-07    3.39405757e-05    9.99998526e-01   -1.10267380e-03   -2.15844668e-08   -1.67019206e-05    1.43484955e-01   -2.90999658e-04   -1.43484955e-01    2.90999659e-04    6.55068724e-02   -4.38801206e-04
   3.77677624e+06    9.99998144e-01   -1.23721685e-03   -1.01411901e-06    3.80853401e-05    2.71732294e-08    1.87398577e-05   -1.01411901e-06    3.80853401e-05    9.99998144e-01   -1.23721685e-03   -2.71732294e-08   -1.87398577e-05    1.43484878e-01   -3.26506919e-04   -1.43484878e-01    3.26506919e-04    6.55068307e-02   -4.92343036e-04
   4.23761263e+06    9.99997664e-01   -1.38817519e-03   -1.27662248e-06    4.27372394e-05    3.42090620e-08    2.10264586e-05   -1.27662248e-06    4.27372394e-05    9.99997664e-01   -1.38817519e-03   -3.42090620e-08   -2.10264586e-05    1.43484782e-01   -3.66346693e-04   -1.43484782e-01    3.66346694e-04    6.55067781e-02   -5.52417952e-04
   4.75467958e+06    9.99997059e-01   -1.55755119e-03   -1.60704932e-06    4.79587294e-05    4.30666465e-08    2.35920638e-05   -1.60704932e-06    4.79587294e-05    9.99997059e-01   -1.55755119e-03   -4.30666465e-08   -2.35920638e-05    1.43484660e-01   -4.11047615e-04   -1.43484660e-01    4.11047615e-04    6.55067120e-02   -6.19823108e-04
   5.33483823e+06    9.99996298e-01   -1.74759131e-03   -2.02296007e-06    5.38201240e-05    5.42176781e-08    2.64707157e-05   -2.02296007e-06    5.38201240e-05    9.99996298e-01   -1.74759131e-03   -5.42176782e-08   -2.64707157e-05    1.43484507e-01   -4.61202820e-04   -1.43484507e-01    4.61202820e-04    6.55066288e-02   -6.95452925e-04
   5.98578694e+06    9.99995340e-01   -1.96081577e-03   -2.54644660e-06    6.04006519e-05    6.82559850e-08    2.97006101e-05   -2.54644660e-06    6.04006519e-05    9.99995340e-01   -1.96081577e-03   -6.82559851e-08   -2.97006101e-05    1.43484315e-01   -5.17477806e-04   -1.43484315e-01    5.17477806e-04    6.55065240e-02   -7.80310958e-04
   6.71616342e+06    9.99994133e-01   -2.20005180e-03   -3.20529632e-06    6.77896818e-05    8.59291502e-08    3.33246022e-05   -3.20529632e-06    6.77896818e-05    9.99994133e-01   -2.20005180e-03   -8.59291502e-08   -3.33246022e-05    1.43484073e-01   -5.80619267e-04   -1.43484073e-01    5.80619267e-04    6.55063921e-02   -8.75523213e-04
   7.53565929e+06    9.99992615e-01   -2.46847092e-03   -4.03445262e-06    7.60881544e-05    1.08178321e-07    3.73907758e-05   -4.03445262e-06    7.60881544e-05    9.99992615e-01   -2.46847092e-03   -1.08178321e-07   -3.73907758e-05    1.43483768e-01   -6.51464995e-04   -1.43483768e-01    6.51464995e-04    6.55062261e-02   -9.82353087e-04
   8.45514879e+06    9.99990704e-01   -2.76963069e-03   -5.07784493e-06    8.54102684e-05    1.36188327e-07    4.19530799e-05   -5.07784493e-06    8.54102684e-05    9.99990704e-01   -2.76963069e-03   -1.36188327e-07   -4.19530799e-05    1.43483384e-01   -7.30954987e-04   -1.43483384e-01    7.30954987e-04    6.55060170e-02   -1.10221813e-03
   9.48683298e+06    9.99988300e-01   -3.10752135e-03   -6.39067955e-06    9.58854843e-05    1.71450771e-07    4.70720443e-05   -6.39067955e-06    9.58854843e-05    9.99988300e-01   -3.10752135e-03   -1.71450771e-07   -4.70720443e-05    1.43482901e-01   -8.20143912e-04   -1.43482901e-01    8.20143912e-04    6.55057538e-02   -1.23670885e-03
   1.06444017e+07    9.99985273e-01   -3.48661809e-03   -8.04230262e-06    1.07660930e-04    2.15843455e-07    5.28155815e-05   -8.04230262e-06    1.07660930e-04    9.99985273e-01   -3.48661809e-03   -2.15843455e-07   -5.28155815e-05    1.43482292e-01   -9.20215089e-04   -1.43482292e-01    9.20215089e-04    6.55054225e-02   -1.38760983e-03
   1.19432151e+07    9.99981465e-01   -3.91193944e-03   -1.01197715e-05    1.20904324e-04    2.71730371e-07    5.92598863e-05   -1.01197715e-05    1.20904324e-04    9.99981465e-01   -3.91193944e-03   -2.71730371e-07   -5.92598863e-05    1.43481526e-01   -1.03249617e-03   -1.43481526e-01    1.03249617e-03    6.55050054e-02   -1.55692338e-03
   1.34005078e+07    9.99976673e-01   -4.38911245e-03   -1.27322984e-05    1.35807558e-04    3.42087572e-07    6.64904449e-05   -1.27322984e-05    1.35807558e-04    9.99976673e-01   -4.38911245e-03   -3.42087573e-07   -6.64904449e-05    1.43480562e-01   -1.15847673e-03   -1.43480562e-01    1.15847673e-03    6.55044803e-02   -1.74689611e-03
   1.50356170e+07    9.99970646e-01   -4.92444537e-03   -1.60167635e-05    1.52591163e-04    4.30663738e-07    7.46031654e-05   -1.60167630e-05    1.52591163e-04    9.99970646e-01   -4.92444537e-03   -4.30659531e-07   -7.46031657e-05    1.43479348e-01   -1.29982800e-03   -1.43479348e-01    1.29982800e-03    6.55038192e-02   -1.96004876e-03
   1.68702398e+07    9.99963065e-01   -5.52500855e-03   -2.01445230e-05    1.71509915e-04    5.42167015e-07    8.37056474e-05   -2.01445241e-05    1.71509915e-04    9.99963065e-01   -5.52500856e-03   -5.42171237e-07   -8.37056471e-05    1.43477819e-01   -1.45842498e-03   -1.43477819e-01    1.45842498e-03    6.55029870e-02   -2.19920959e-03
   1.89287203e+07    9.99953532e-01   -6.19872445e-03   -2.53297854e-05    1.92859977e-04    6.82548529e-07    9.39186011e-05   -2.53297849e-05    1.92859977e-04    9.99953532e-01   -6.19872445e-03   -6.82546907e-07   -9.39186013e-05    1.43475895e-01   -1.63637122e-03   -1.43475895e-01    1.63637122e-03    6.55019392e-02   -2.46755192e-03
   2.12383735e+07    9.99941548e-01   -6.95446724e-03   -3.18398216e-05    2.16988073e-04    8.59270968e-07    1.05377444e-04   -3.18398222e-05    2.16988073e-04    9.99941548e-01   -6.95446724e-03   -8.59273576e-07   -1.05377444e-04    1.43473473e-01   -1.83602667e-03   -1.43473473e-01    1.83602667e-03    6.55006202e-02   -2.76863621e-03
   2.38298470e+07    9.99926491e-01   -7.80217303e-03   -4.00073439e-05    2.44303408e-04    1.08175317e-06    1.18234080e-04   -4.00073430e-05    2.44303408e-04    9.99926491e-01   -7.80217303e-03   -1.08175230e-06   -1.18234080e-04    1.43470423e-01   -2.06003880e-03   -1.43470423e-01    2.06003880e-03    6.54989596e-02   -3.10645727e-03
   2.67375281e+07    9.99907578e-01   -8.75296119e-03   -5.02452897e-05    2.75293234e-04    1.36183484e-06    1.32658904e-04   -5.02452898e-05    2.75293234e-04    9.99907578e-01   -8.75296119e-03   -1.36183510e-06   -1.32658904e-04    1.43466584e-01   -2.31137753e-03   -1.43466584e-01    2.31137753e-03    6.54968691e-02   -3.48549724e-03
   3.00000000e+07    9.99883839e-01   -9.81926733e-03   -6.30642552e-05    3.10543337e-04    1.71443211e-06    1.48843033e-04   -6.30642549e-05    3.10543337e-04    9.99883839e-01   -9.81926733e-03   -1.71443019e-06   -1.48843033e-04    1.43461751e-01   -2.59337433e-03   -1.43461751e-01    2.59337433e-03    6.54942373e-02   -3.91078495e-03
   3.36605536e+07    9.99854063e-01   -1.10149884e-02   -7.90925700e-05    3.50765038e-04    2.15831406e-06    1.67000807e-04   -7.90925693e-05    3.50765038e-04    9.99854063e-01   -1.10149884e-02   -2.15831238e-06   -1.67000807e-04    1.43455667e-01   -2.90976594e-03   -1.43455667e-01    2.90976594e-03    6.54909241e-02   -4.38796261e-03
   3.77677624e+07    9.99816750e-01   -1.23556397e-02   -9.90987462e-05    3.96830849e-04    2.71710975e-06    1.87372589e-04   -9.90987470e-05    3.96830849e-04    9.99816750e-01   -1.23556397e-02   -2.71711309e-06   -1.87372589e-04    1.43448007e-01   -3.26474340e-03   -1.43448007e-01    3.26474340e-03    6.54867530e-02   -4.92336052e-03
   4.23761263e+07    9.99770046e-01   -1.38585241e-02   -1.24015444e-04    4.49821413e-04    3.42057229e-06    2.10227876e-04   -1.24015443e-04    4.49821413e-04    9.99770046e-01   -1.38585241e-02   -3.42056966e-06   -2.10227877e-04    1.43438365e-01   -3.66300674e-03   -1.43438365e-01    3.66300674e-03    6.54815019e-02   -5.52408086e-03
   4.75467958e+07    9.99711670e-01   -1.55429123e-02   -1.54963192e-04    5.11086958e-04    4.30613452e-06    2.35868785e-04   -1.54963193e-04    5.11086958e-04    9.99711670e-01   -1.55429123e-02   -4.30613218e-06   -2.35868786e-04    1.43426226e-01   -4.10982613e-03   -1.43426226e-01    4.10982613e-03    6.54748912e-02   -6.19809172e-03
   5.33483823e+07    9.99638833e-01   -1.74302337e-02   -1.93270785e-04    5.82326979e-04    5.42092603e-06    2.64633916e-04   -1.93270785e-04    5.82326979e-04    9.99638833e-01   -1.74302337e-02   -5.42092554e-06   -2.64633916e-04    1.43410946e-01   -4.61111003e-03   -1.43410946e-01    4.61111003e-03    6.54665689e-02   -6.95433239e-03
   5.98578694e+07    9.99548149e-01   -1.95442776e-02   -2.40487221e-04    6.65692021e-04    6.82426501e-06    2.96902647e-04   -2.40487221e-04    6.65692021e-04    9.99548149e-01   -1.95442776e-02   -6.82426302e-06   -2.96902648e-04    1.43391710e-01   -5.17348115e-03   -1.43391710e-01    5.17348115e-03    6.54560919e-02   -7.80283151e-03
   6.71616342e+07    9.99435538e-01   -2.19114039e-02   -2.98377448e-04    7.63911005e-04    8.59080039e-06    3.33099897e-04   -2.98377448e-04    7.63911005e-04    9.99435538e-01   -2.19114039e-02   -8.59079974e-06   -3.33099897e-04    1.43367495e-01   -5.80436084e-03   -1.43367495e-01    5.80436070e-03    6.54429021e-02   -8.75483935e-03
   7.53565929e+07    9.99296141e-01   -2.45607664e-02   -3.68890766e-04    8.80445850e-04    1.08144785e-05    3.73701361e-04   -3.68890767e-04    8.80445850e-04    9.99296141e-01   -2.45607664e-02   -1.08144820e-05   -3.73701360e-04    1.43337013e-01   -6.51206251e-03   -1.43337013e-01    6.51206261e-03    6.54262974e-02   -9.82297592e-03
   8.45514879e+07    9.99124232e-01   -2.75245535e-02   -4.54087118e-04    1.01967161e-03    1.36135207e-05    4.19239273e-04   -4.54087119e-04    1.01967161e-03    9.99124232e-01   -2.75245535e-02   -1.36135207e-05   -4.19239273e-04    1.43298644e-01   -7.30589523e-03   -1.43298644e-01    7.30589521e-03    6.54053936e-02   -1.10213976e-02
   9.48683298e+07    9.98913162e-01   -3.08382588e-02   -5.56003319e-04    1.18707409e-03    1.71366617e-05    4.70308683e-04   -5.56003319e-04    1.18707409e-03    9.98913162e-01   -3.08382588e-02   -1.71366557e-05   -4.70308685e-04    1.43250348e-01   -8.19627718e-03   -1.43250348e-01    8.19627722e-03    6.53790777e-02   -1.23659815e-02
   1.06444017e+08    9.98655325e-01   -3.45410046e-02   -6.76440382e-04    1.38944738e-03    2.15710053e-05    5.27574248e-04   -6.76440382e-04    1.38944738e-03    9.98655325e-01   -3.45410046e-02   -2.15710035e-05   -5.27574249e-04    1.43189558e-01   -9.19486008e-03   -1.43189560e-01    9.19486014e-03    6.53459487e-02   -1.38745345e-02
   1.19432151e+08    9.98342161e-01   -3.86759495e-02   -8.16656833e-04    1.63506152e-03    2.71518943e-05    5.91777483e-04   -8.16656833e-04    1.63506152e-03    9.98342161e-01   -3.86759495e-02   -2.71518961e-05   -5.91777482e-04    1.43113050e-01   -1.03146644e-02   -1.43113048e-01    1.03146644e-02    6.53042430e-02   -1.55670249e-02
   1.34005078e+08    9.97964169e-01   -4.32908297e-02   -9.76964400e-04    1.93375739e-03    3.41752548e-05    6.63744400e-04   -9.76964401e-04    1.93375739e-03    9.97964169e-01   -4.32908297e-02   -3.41752535e-05   -6.63744401e-04    1.43016761e-01   -1.15702242e-02   -1.43016759e-01    1.15702241e-02    6.52517405e-02   -1.74658410e-02
   1.50356170e+08    9.97510911e-01   -4.84386861e-02   -1.15624369e-03    2.29691727e-03    4.30130738e-05    7.44393370e-04   -1.15624369e-03    2.29691727e-03    9.97510911e-01   -4.84386861e-02   -4.30130737e-05   -7.44393370e-04    1.42895589e-01   -1.29777411e-02   -1.42895588e-01    1.29777410e-02    6.51856468e-02   -1.95960802e-02
   1.68702398e+08    9.96970919e-01   -5.41788284e-02   -1.35142771e-03    2.73726246e-03    5.41327877e-05    8.34742913e-04   -1.35142771e-03    2.73726246e-03    9.96970919e-01   -5.41788284e-02   -5.41327907e-05   -8.34742911e-04    1.42743119e-01   -1.45552444e-02   -1.42743120e-01    1.45552445e-02    6.51024445e-02   -2.19858700e-02
   1.89287203e+08    9.96331400e-01   -6.05780607e-02   -1.55703282e-03    3.26845220e-03    6.81214807e-05    9.35919051e-04   -1.55703282e-03    3.26845220e-03    9.96331400e-01   -6.05780607e-02   -6.81214823e-05   -9.35919050e-04    1.42551294e-01   -1.63227531e-02   -1.42551294e-01    1.63227531e-02    6.49977065e-02   -2.46667247e-02
   2.12383735e+08    9.95577609e-01   -6.77121436e-02   -1.76483604e-03    3.90450378e-03    8.57160486e-05    1.04916156e-03   -1.76483604e-03    3.90450378e-03    9.95577609e-01   -6.77121436e-02   -8.57160488e-05   -1.04916156e-03    1.42309995e-01   -1.83024319e-02   -1.42309994e-01    1.83024318e-02    6.48658612e-02   -2.76739390e-02
   2.38298470e+08    9.94691738e-01   -7.56674032e-02   -1.96378713e-03    4.65911432e-03    1.07840722e-04    1.17582819e-03   -1.96378713e-03    4.65911432e-03    9.94691738e-01   -7.56674032e-02   -1.07840723e-04   -1.17582819e-03    1.42006522e-01   -2.05187321e-02   -1.42006522e-01    2.05187321e-02    6.46998967e-02   -3.10470239e-02
   2.67375281e+08    9.93651246e-01   -8.45423340e-02   -2.14019185e-03    5.54501803e-03    1.35653557e-04    1.31739552e-03   -2.14019185e-03    5.54501803e-03    9.93651246e-01   -8.45423340e-02   -1.35653556e-04   -1.31739552e-03    1.41624960e-01   -2.29985009e-02   -1.41624959e-01    2.29985009e-02    6.44909899e-02   -3.48301825e-02
   3.00000000e+08    9.92426596e-01   -9.44490150e-02   -2.27811831e-03    6.57352933e-03    1.70603791e-04    1.47545439e-03   -2.27811831e-03    6.57352933e-03    9.92426596e-01   -9.44490150e-02   -1.70603789e-04   -1.47545439e-03    1.41145369e-01   -2.57710337e-02   -1.41145367e-01    2.57710336e-02    6.42280396e-02   -3.90728302e-02
   3.36605536e+08    9.90978459e-01   -1.05514184e-01   -2.35988866e-03    7.75438146e-03    2.14502223e-04    1.65169730e-03   -2.35988866e-03    7.75438146e-03    9.90978459e-01   -1.05514184e-01   -2.14502224e-04   -1.65169730e-03    1.40542813e-01   -2.88680389e-02   -1.40542813e-01    2.88680390e-02    6.38970807e-02   -4.38301555e-02
   3.77677624e+08    9.89254476e-01   -1.17879880e-01   -2.36646596e-03    9.09587894e-03    2.69606938e-04    1.84789359e-03   -2.36646596e-03    9.09587894e-03    9.89254476e-01   -1.17879880e-01   -2.69606938e-04   -1.84789359e-03    1.39786162e-01   -3.23234646e-02   -1.39786162e-01    3.23234645e-02    6.34805487e-02   -4.91637178e-02
   4.23761263e+08    9.87185644e-01   -1.31703635e-01   -2.27755531e-03    1.06052735e-02    3.38726689e-04    2.06584707e-03   -2.27755531e-03    1.06052735e-02    9.87185644e-01   -1.31703635e-01   -3.38726689e-04   -2.06584707e-03    1.38836630e-01   -3.61731192e-02   -1.38836630e-01    3.61731192e-02    6.29563580e-02   -5.51420757e-02
   4.75467958e+08    9.84682318e-01   -1.47158256e-01   -2.07130610e-03    1.22891893e-02    4.25344009e-04    2.30732852e-03   -2.07130610e-03    1.22891893e-02    9.84682318e-01   -1.47158256e-01   -4.25344009e-04   -2.30732852e-03    1.37646029e-01   -4.04539945e-02   -1.37646029e-01    4.04539945e-02    6.22967465e-02   -6.18414280e-02
   5.33483823e+08    9.81629704e-01   -1.64431160e-01   -1.72359647e-03    1.41538932e-02    5.33759190e-04    2.57397256e-03   -1.72359647e-03    1.41538932e-02    9.81629704e-01   -1.64431160e-01   -5.33759189e-04   -2.57397256e-03    1.36154707e-01   -4.52031576e-02   -1.36154707e-01    4.52031576e-02    6.14668316e-02   -6.93462461e-02
   5.98578694e+08    9.77882656e-01   -1.83723186e-01   -1.20696471e-03    1.62052229e-02    6.69254497e-04    2.86712533e-03   -1.20696471e-03    1.62052229e-02    9.77882656e-01   -1.83723186e-01   -6.69254496e-04   -2.86712533e-03    1.34289143e-01   -5.04560415e-02   -1.34289142e-01    5.04560415e-02    6.04228076e-02   -7.77498585e-02
   6.71616342e+08    9.73259546e-01   -2.05246594e-01   -4.89303520e-04    1.84480304e-02    8.38274659e-04    3.18762460e-03   -4.89303521e-04    1.84480304e-02    9.73259546e-01   -2.05246594e-01   -8.38274659e-04   -3.18762459e-03    1.31959247e-01   -5.62439007e-02   -1.31959247e-01    5.62439007e-02    5.91097008e-02   -8.71549300e-02
   7.53565929e+08    9.67535022e-01   -2.29221829e-01    4.67546776e-04    2.08850366e-02    1.04861395e-03    3.53548940e-03    4.67546776e-04    2.08850366e-02    9.67535022e-01   -2.29221829e-01   -1.04861395e-03   -3.53548941e-03    1.29055446e-01   -6.25901340e-02   -1.29055446e-01    6.25901340e-02    5.74585855e-02   -9.76737503e-02
   8.45514879e+08    9.60431570e-01   -2.55872419e-01    1.70916167e-03    2.35150109e-02    1.30959097e-03    3.90949066e-03    1.70916167e-03    2.35150109e-02    9.60431570e-01   -2.55872419e-01   -1.30959097e-03   -3.90949067e-03    1.25445743e-01   -6.95051043e-02   -1.25445744e-01    6.95051044e-02    5.53831450e-02   -1.09428202e-01
   9.48683298e+08    9.51609985e-01   -2.85417189e-01    3.28969064e-03    2.63301882e-02    1.63217788e-03    4.30657008e-03    3.28969064e-03    2.63301882e-02    9.51609985e-01   -2.85417189e-01   -1.63217788e-03   -4.30657008e-03    1.20973124e-01   -7.69790132e-02   -1.20973124e-01    7.69790132e-02    5.27754532e-02   -1.22549230e-01
   1.06444017e+09    9.40659114e-01   -3.18058812e-01    5.27259998e-03    2.93128202e-02    2.02902973e-03    4.72107320e-03    5.27259998e-03    2.93128202e-02    9.40659114e-01   -3.18058812e-01   -2.02902973e-03   -4.72107320e-03    1.15453910e-01   -8.49723511e-02   -1.15453910e-01    8.49723511e-02    4.95008461e-02   -1.37175532e-01
   1.19432151e+09    9.27085670e-01   -3.53967544e-01    7.73069871e-03    3.24307510e-02    2.51432967e-03    5.14376788e-03    7.73069871e-03    3.24307510e-02    9.27085670e-01   -3.53967544e-01   -2.51432967e-03   -5.14376788e-03    1.08678046e-01   -9.34034762e-02   -1.08678047e-01    9.34034762e-02    4.53917663e-02   -1.53451113e-01
   1.34005078e+09    9.10305459e-01   -3.93258963e-01    1.07450017e-02    3.56319439e-02    3.10332670e-03    5.56063845e-03    1.07450017e-02    3.56319439e-02    9.10305459e-01   -3.93258963e-01   -3.10332670e-03   -5.56063845e-03    1.00412746e-01   -1.02133053e-01   -1.00412746e-01    1.02133053e-01    4.02405132e-02   -1.71521152e-01
   1.50356170e+09    8.89638156e-01   -4.35964650e-01    1.44017896e-02    3.88379943e-02    3.81139643e-03    5.95148772e-03    1.44017896e-02    3.88379943e-02    8.89638156e-01   -4.35964650e-01   -3.81139643e-03   -5.95148772e-03    9.04115515e-02   -1.10945521e-01   -9.04115515e-02    1.10945521e-01    3.37909434e-02   -1.91525475e-01
   1.68702398e+09    8.64308710e-01   -4.81995205e-01    1.87870018e-02    4.19369223e-02    4.65240962e-03    6.28845691e-03    1.87870018e-02    4.19369223e-02    8.64308710e-01   -4.81995205e-01   -4.65240962e-03   -6.28845690e-03    7.84314380e-02   -1.19528620e-01   -7.84314380e-02    1.19528620e-01    2.57293828e-02   -2.13588659e-01
   1.89287203e+09    8.33459544e-01   -5.31096043e-01    2.39769180e-02    4.47759928e-02    5.63616737e-03    6.53470222e-03    2.39769180e-02    4.47759928e-02    8.33459544e-01   -5.31096043e-01   -5.63616737e-03   -6.53470222e-03    6.42610400e-02   -1.27453446e-01   -6.42610401e-02    1.27453446e-01    1.56754025e-02   -2.37805567e-01
