[Version] 2.0
# Hz S RI R 2000 2000 4000
[Number of Ports] 3
[Number of Frequencies] 81
[Reference] 2000 2000 4000
[Network Data]
!      Freq              ReS11             ImS11             ReS12             ImS12             ReS13             ImS13             ReS21             ImS21             ReS22             ImS22             ReS23             ImS23             ReS31             ImS31             ReS32             ImS32             ReS33             ImS33      
   3.00000000e+06    9.99999579e-01   -7.02046374e-04    8.02547674e-07    4.15403422e-04    1.77299508e-08    1.13317068e-05    8.02547674e-07    4.15403422e-04    9.99999579e-01   -7.02046374e-04   -1.77299508e-08   -1.13317068e-05    7.73674342e+00   -2.19890675e-02   -7.73674342e+00    2.19890675e-02   -3.30898504e-01    5.00271288e-04
   3.36605536e+06    9.99999470e-01   -7.87708812e-04    1.01034670e-06    4.66089859e-04    2.23206639e-08    1.27143746e-05    1.01034670e-06    4.66089859e-04    9.99999470e-01   -7.87708812e-04   -2.23206639e-08   -1.27143746e-05    7.73673078e+00   -2.46721096e-02   -7.73673078e+00    2.46721096e-02   -3.30898124e-01    5.61312695e-04
   3.77677624e+06    9.99999333e-01   -8.83823574e-04    1.27194961e-06    5.22960791e-04    2.81000166e-08    1.42657495e-05    1.27194961e-06    5.22960791e-04    9.99999333e-01   -8.83823574e-04   -2.81000165e-08   -1.42657495e-05    7.73671487e+00   -2.76825199e-02   -7.73671487e+00    2.76825199e-02   -3.30897645e-01    6.29801901e-04
   4.23761263e+06    9.99999161e-01   -9.91666008e-04    1.60128726e-06    5.86770767e-04    3.53757703e-08    1.60064151e-05    1.60128726e-06    5.86770767e-04    9.99999161e-01   -9.91666008e-04   -3.53757703e-08   -1.60064151e-05    7.73669485e+00   -3.10602383e-02   -7.73669485e+00    3.10602383e-02   -3.30897043e-01    7.06647518e-04
   4.75467958e+06    9.99998943e-01   -1.11266706e-03    2.01589739e-06    6.58366369e-04    4.45353696e-08    1.79594663e-05    2.01589739e-06    6.58366369e-04    9.99998943e-01   -1.11266706e-03   -4.45353697e-08   -1.79594663e-05    7.73666964e+00   -3.48500761e-02   -7.73666964e+00    3.48500761e-02   -3.30896285e-01    7.92868958e-04
   5.33483823e+06    9.99998670e-01   -1.24843228e-03    2.53785838e-06    7.38697435e-04    5.60665714e-08    2.01508146e-05    2.53785838e-06    7.38697435e-04    9.99998670e-01   -1.24843228e-03   -5.60665714e-08   -2.01508146e-05    7.73663790e+00   -3.91023091e-02   -7.73663790e+00    3.91023091e-02   -3.30895330e-01    8.89609935e-04
   5.98578694e+06    9.99998325e-01   -1.40076306e-03    3.19496478e-06    8.28829640e-04    7.05834141e-08    2.26095322e-05    3.19496478e-06    8.28829640e-04    9.99998325e-01   -1.40076306e-03   -7.05834141e-08   -2.26095322e-05    7.73659794e+00   -4.38733437e-02   -7.73659794e+00    4.38733437e-02   -3.30894128e-01    9.98153583e-04
   6.71616342e+06    9.99997892e-01   -1.57168060e-03    4.02220709e-06    9.29958601e-04    8.88589092e-08    2.53682366e-05    4.02220709e-06    9.29958601e-04    9.99997892e-01   -1.57168060e-03   -8.88589092e-08   -2.53682366e-05    7.73654764e+00   -4.92264631e-02   -7.73654764e+00    4.92264631e-02   -3.30892615e-01    1.11993942e-03
   7.53565929e+06    9.99997346e-01   -1.76345266e-03    5.06363452e-06    1.04342570e-03    1.11866193e-07    2.84635226e-05    5.06363452e-06    1.04342570e-03    9.99997346e-01   -1.76345266e-03   -1.11866193e-07   -2.84635226e-05    7.73648431e+00   -5.52326635e-02   -7.73648431e+00    5.52326635e-02   -3.30890711e-01    1.25658236e-03
   8.45514879e+06    9.99996658e-01   -1.97862364e-03    6.37469984e-06    1.17073580e-03    1.40830327e-07    3.19364465e-05    6.37469984e-06    1.17073580e-03    9.99996658e-01   -1.97862364e-03   -1.40830328e-07   -3.19364465e-05    7.73640459e+00   -6.19715924e-02   -7.73640459e+00    6.19715924e-02   -3.30888313e-01    1.40989400e-03
   9.48683298e+06    9.99995793e-01   -2.22004828e-03    8.02521114e-06    1.31357716e-03    1.77293483e-07    3.58330687e-05    8.02521058e-06    1.31357716e-03    9.99995793e-01   -2.22004828e-03   -1.77293531e-07   -3.58330687e-05    7.73630423e+00   -6.95325989e-02   -7.73630423e+00    6.95325989e-02   -3.30885294e-01    1.58190646e-03
   1.06444017e+07    9.99994704e-01   -2.49092957e-03    1.01030454e-05    1.47384368e-03    2.23197144e-07    4.02050627e-05    1.01030458e-05    1.47384368e-03    9.99994704e-01   -2.49092957e-03   -2.23197110e-07   -4.02050627e-05    7.73617788e+00   -7.80159108e-02   -7.73617788e+00    7.80159108e-02   -3.30881494e-01    1.77489910e-03
   1.19432151e+07    9.99993333e-01   -2.79486106e-03    1.27188278e-05    1.65365984e-03    2.80985126e-07    4.51103963e-05    1.27188286e-05    1.65365984e-03    9.99993333e-01   -2.79486106e-03   -2.80985055e-07   -4.51103963e-05    7.73601883e+00   -8.75339521e-02   -7.73601883e+00    8.75339521e-02   -3.30876709e-01    1.99142839e-03
   1.34005078e+07    9.99991606e-01   -3.13587456e-03    1.60118141e-05    1.85540865e-03    3.53733817e-07    5.06140952e-05    1.60118142e-05    1.85540865e-03    9.99991606e-01   -3.13587456e-03   -3.53733805e-07   -5.06140952e-05    7.73581860e+00   -9.82128175e-02   -7.73581860e+00    9.82128175e-02   -3.30870687e-01    2.23436128e-03
   1.50356170e+07    9.99989433e-01   -3.51849341e-03    2.01572965e-05    2.08176291e-03    4.45315828e-07    5.67890988e-05    2.01572964e-05    2.08176291e-03    9.99989433e-01   -3.51849341e-03   -4.45315835e-07   -5.67890988e-05    7.73556653e+00   -1.10193921e-01   -7.73556653e+00    1.10193921e-01   -3.30863105e-01    2.50691249e-03
   1.68702398e+07    9.99986698e-01   -3.94779233e-03    2.53759249e-05    2.33572013e-03    5.60605722e-07    6.37172161e-05    2.53759254e-05    2.33572013e-03    9.99986698e-01   -3.94779233e-03   -5.60605686e-07   -6.37172161e-05    7.73524921e+00   -1.23635838e-01   -7.73524921e+00    1.23635838e-01   -3.30853561e-01    2.81268610e-03
   1.89287203e+07    9.99983254e-01   -4.42946449e-03    3.19454345e-05    2.62064160e-03    7.05739007e-07    7.14901963e-05    3.19454339e-05    2.62064160e-03    9.99983254e-01   -4.42946449e-03   -7.05739063e-07   -7.14901963e-05    7.73484976e+00   -1.38716360e-01   -7.73484976e+00    1.38716360e-01   -3.30841546e-01    3.15572192e-03
   2.12383735e+07    9.99978918e-01   -4.96989661e-03    4.02153924e-05    2.94029597e-03    8.88438423e-07    8.02109241e-05    4.02153937e-05    2.94029597e-03    9.99978918e-01   -4.96989661e-03   -8.88438310e-07   -8.02109241e-05    7.73434692e+00   -1.55634785e-01   -7.73434692e+00    1.55634785e-01   -3.30826421e-01    3.54054687e-03
   2.38298470e+07    9.99973461e-01   -5.57625316e-03    5.06257626e-05    3.29890776e-03    1.11842302e-06    8.99947537e-05    5.06257616e-05    3.29890776e-03    9.99973461e-01   -5.57625316e-03   -1.11842310e-06   -8.99947537e-05    7.73371395e+00   -1.74614464e-01   -7.73371395e+00    1.74614464e-01   -3.30807382e-01    3.97223216e-03
   2.67375281e+07    9.99966591e-01   -6.25657061e-03    6.37302266e-05    3.70121142e-03    1.40792469e-06    1.00970996e-04    6.37302258e-05    3.70121142e-03    9.99966591e-01   -6.25657061e-03   -1.40792476e-06   -1.00970996e-04    7.73291718e+00   -1.95905628e-01   -7.73291718e+00    1.95905628e-01   -3.30783417e-01    4.45645629e-03
   3.00000000e+07    9.99957943e-01   -7.01986292e-03    8.02255285e-05    4.15251120e-03    1.77233514e-06    1.13284572e-04    8.02255281e-05    4.15251120e-03    9.99957943e-01   -7.01986292e-03   -1.77233518e-06   -1.13284572e-04    7.73191428e+00   -2.19788513e-01   -7.73191428e+00    2.19788513e-01   -3.30753252e-01    4.99957441e-03
   3.36605536e+07    9.99947058e-01   -7.87623956e-03    1.00988333e-04    4.65874746e-03    2.23102057e-06    1.27097849e-04    1.00988332e-04    4.65874746e-03    9.99947058e-01   -7.87623956e-03   -2.23102064e-06   -1.27097849e-04    7.73065197e+00   -2.46576804e-01   -7.73065197e+00    2.46576804e-01   -3.30715284e-01    5.60869426e-03
   3.77677624e+07    9.99933357e-01   -8.83703736e-03    1.27121528e-04    5.22656971e-03    2.80834451e-06    1.42592673e-04    1.27121530e-04    5.22656971e-03    9.99933357e-01   -8.83703736e-03   -2.80834435e-06   -1.42592673e-04    7.72906322e+00   -2.76621411e-01   -7.72906322e+00    2.76621411e-01   -3.30667498e-01    6.29175857e-03
   4.23761263e+07    9.99916113e-01   -9.91496774e-03    1.60012360e-04    5.86341671e-03    3.53495099e-06    1.59972604e-04    1.60012360e-04    5.86341671e-03    9.99916113e-01   -9.91496774e-03   -3.53495097e-06   -1.59972604e-04    7.72706375e+00   -3.10314578e-01   -7.72706375e+00    3.10314578e-01   -3.30607359e-01    7.05763366e-03
   4.75467958e+07    9.99894411e-01   -1.11242809e-02    2.01405340e-04    6.57760365e-03    4.44937591e-06    1.79465377e-04    2.01405341e-04    6.57760365e-03    9.99894411e-01   -1.11242809e-02   -4.44937588e-06   -1.79465377e-04    7.72454761e+00   -3.48094317e-01   -7.72454761e+00    3.48094317e-01   -3.30531680e-01    7.91620348e-03
   5.33483823e+07    9.99867099e-01   -1.24809485e-02    2.53493646e-04    7.37841628e-03    5.60006413e-06    2.01325576e-04    2.53493645e-04    7.37841628e-03    9.99867099e-01   -1.24809485e-02   -5.60006421e-06   -2.01325576e-04    7.72138161e+00   -3.90449139e-01   -7.72138161e+00    3.90449139e-01   -3.30436457e-01    8.87846734e-03
   5.98578694e+07    9.99832733e-01   -1.40028667e-02    3.19033502e-04    8.27621129e-03    7.04789600e-06    2.25837524e-04    3.19033502e-04    8.27621129e-03    9.99832733e-01   -1.40028667e-02   -7.04789600e-06   -2.25837524e-04    7.71739844e+00   -4.37923003e-01   -7.71739844e+00    4.37923003e-01   -3.30316658e-01    9.95663899e-03
   6.71616342e+07    9.99789494e-01   -1.57100810e-02    4.01487178e-04    9.28252150e-03    8.86934354e-06    2.53318377e-04    4.01487179e-04    9.28252150e-03    9.99789494e-01   -1.57100810e-02   -8.86934351e-06   -2.53318377e-04    7.71238803e+00   -4.91120383e-01   -7.71238803e+00    4.91120383e-01   -3.30165966e-01    1.11642425e-02
   7.53565929e+07    9.99735100e-01   -1.76250347e-02    5.05201358e-04    1.04101637e-02    1.11604083e-05    2.84121361e-04    5.05201358e-04    1.04101637e-02    9.99735100e-01   -1.76250347e-02   -1.11604083e-05   -2.84121361e-04    7.70608680e+00   -5.50711269e-01   -7.70608680e+00    5.50711269e-01   -3.29976455e-01    1.25161991e-02
   8.45514879e+07    9.99666688e-01   -1.97728419e-02    6.35629131e-04    1.16733449e-02    1.40415209e-05    3.18639114e-04    6.35629132e-04    1.16733449e-02    9.99666688e-01   -1.97728419e-02   -1.40415208e-05   -3.18639114e-04    7.69816429e+00   -6.17435803e-01   -7.69816429e+00    6.17435803e-01   -3.29738192e-01    1.40288941e-02
   9.48683298e+07    9.99580666e-01   -2.21815861e-02    7.99605409e-04    1.30877615e-02    1.76636178e-05    3.57306997e-04    7.99605410e-04    1.30877615e-02    9.99580666e-01   -2.21815861e-02   -1.76636178e-05   -3.57306997e-04    7.68820669e+00   -6.92108154e-01   -7.68820669e+00    6.92108154e-01   -3.29438737e-01    1.57202121e-02
   1.06444017e+08    9.99472532e-01   -2.48826449e-02    1.00568727e-03    1.46706822e-02    2.22156508e-05    4.00606215e-04    1.00568727e-03    1.46706822e-02    9.99472532e-01   -2.48826449e-02   -2.22156507e-05   -4.00606215e-04    7.67569649e+00   -7.75618978e-01   -7.67569649e+00    7.75618978e-01   -3.29062536e-01    1.76095178e-02
   1.19432151e+08    9.99336656e-01   -2.79110390e-02    1.26457236e-03    1.64410018e-02    2.79338163e-05    4.49066491e-04    1.26457236e-03    1.64410018e-02    9.99336656e-01   -2.79110390e-02   -2.79338161e-05   -4.49066491e-04    7.65998767e+00   -8.68935612e-01   -7.65998767e+00    8.68935612e-01   -3.28590175e-01    1.97175558e-02
   1.34005078e+08    9.99166002e-01   -3.13058046e-02    1.58960995e-03    1.84192467e-02    3.51128263e-05    5.03267939e-04    1.58960996e-03    1.84192467e-02    9.99166002e-01   -3.13058046e-02   -3.51128263e-05   -5.03267939e-04    7.64027544e+00   -9.73098711e-01   -7.64027544e+00    9.73098711e-01   -3.27997479e-01    2.20662287e-02
   1.50356170e+08    9.98951795e-01   -3.51103834e-02    1.99741963e-03    2.06275067e-02    4.41195573e-05    5.63841590e-04    1.99741963e-03    2.06275067e-02    9.98951795e-01   -3.51103834e-02   -4.41195572e-05   -5.63841590e-04    7.61556013e+00   -1.08921362e+00   -7.61556013e+00    1.08921362e+00   -3.27254425e-01    2.46781980e-02
   1.68702398e+08    9.98683116e-01   -3.93730243e-02    2.50863181e-03    2.30892559e-02    5.54093908e-05    6.31467878e-04    2.50863181e-03    2.30892559e-02    9.98683116e-01   -3.93730243e-02   -5.54093908e-05   -6.31467878e-04    7.58460423e+00   -1.21843408e+00   -7.58460423e+00    1.21843408e+00   -3.26323864e-01    2.75762346e-02
   1.89287203e+08    9.98346423e-01   -4.41471874e-02    3.14876039e-03    2.58290126e-02    6.95454967e-05    7.06872091e-04    3.14876039e-03    2.58290126e-02    9.98346423e-01   -4.41471874e-02   -6.95454966e-05   -7.06872091e-04    7.54588267e+00   -1.36193511e+00   -7.54588266e+00    1.36193511e+00   -3.25160040e-01    3.07822171e-02
   2.12383735e+08    9.97924968e-01   -4.94919354e-02    3.94920943e-03    2.88717728e-02    8.72211332e-05    7.90815512e-04    3.94920943e-03    2.88717728e-02    9.97924968e-01   -4.94919354e-02   -8.72211332e-05   -7.90815512e-04    7.49752645e+00   -1.52087088e+00   -7.49752645e+00    1.52087088e+00   -3.23706917e-01    3.43156509e-02
   2.38298470e+08    9.97398139e-01   -5.54722977e-02    4.94839948e-03    3.22421297e-02    1.09284741e-04    8.84080584e-04    4.94839948e-03    3.22421297e-02    9.97398139e-01   -5.54722977e-02   -1.09284741e-04   -8.84080584e-04    7.43726153e+00   -1.69631243e+00   -7.43726153e+00    1.69631243e+00   -3.21896380e-01    3.81915435e-02
   2.67375281e+08    9.96740681e-01   -6.21595867e-02    6.19297145e-03    3.59629721e-02    1.36767078e-04    9.87448090e-04    6.19297146e-03    3.59629721e-02    9.96740681e-01   -6.21595867e-02   -1.36767078e-04   -9.87448090e-04    7.36234609e+00   -1.88915876e+00   -7.36234609e+00    1.88915876e+00   -3.19646400e-01    4.24174382e-02
   3.00000000e+08    9.95921847e-01   -6.96316506e-02    7.73898086e-03    4.00536314e-02    1.70908843e-04    1.10166401e-03    7.73898087e-03    4.00536314e-02    9.95921847e-01   -6.96316506e-02   -1.70908843e-04   -1.10166401e-03    7.26951289e+00   -2.10001423e+00   -7.26951289e+00    2.10001423e+00   -3.16859389e-01    4.69893863e-02
   3.36605536e+08    9.94904438e-01   -7.79730470e-02    9.65292616e-03    4.45273382e-02    2.13186043e-04    1.22739364e-03    9.65292618e-03    4.45273382e-02    9.94904438e-01   -7.79730470e-02   -2.13186044e-04   -1.22739364e-03    7.15492700e+00   -2.32902502e+00   -7.15492700e+00    2.32902502e+00   -3.13421055e-01    5.18866296e-02
   3.77677624e+08    9.93643785e-01   -8.72751385e-02    1.20123553e-02    4.93878544e-02    2.65328783e-04    1.36516077e-03    1.20123553e-02    4.93878544e-02    9.93643785e-01   -8.72751385e-02   -2.65328783e-04   -1.36516077e-03    7.01417496e+00   -2.57566880e+00   -7.01417496e+00    2.57566880e+00   -3.09200270e-01    5.70648159e-02
   4.23761263e+08    9.92086632e-01   -9.76361260e-02    1.49056594e-02    5.46252061e-02    3.29327205e-04    1.51527116e-03    1.49056594e-02    5.46252061e-02    9.92086632e-01   -9.76361260e-02   -3.29327205e-04   -1.51527116e-03    6.84230822e+00   -2.83849604e+00   -6.84230822e+00    2.83849604e+00   -3.04050653e-01    6.24476970e-02
   4.75467958e+08    9.90169900e-01   -1.09161049e-01    1.84305004e-02    6.02105774e-02    4.07416323e-04    1.67772141e-03    1.84305004e-02    6.02105774e-02    9.90169900e-01   -1.09161049e-01   -4.07416323e-04   -1.67772141e-03    6.63397034e+00   -3.11482993e+00   -6.63397034e+00    3.11482993e+00   -2.97814804e-01    6.79175198e-02
   5.33483823e+08    9.87819201e-01   -1.21961773e-01    2.26901553e-02    6.60907000e-02    5.02030065e-04    1.85209893e-03    2.26901553e-02    6.60906999e-02    9.87819201e-01   -1.21961773e-01   -5.02030066e-04   -1.85209893e-03    6.38364272e+00   -3.40044591e+00   -6.38364272e+00    3.40044591e+00   -2.90332259e-01    7.33047632e-02
   5.98578694e+08    9.84946870e-01   -1.36156878e-01    2.77869787e-02    7.21825467e-02    6.15715149e-04    2.03748401e-03    2.77869787e-02    7.21825467e-02    9.84946870e-01   -1.36156878e-01   -6.15715149e-04   -2.03748401e-03    6.08604274e+00   -3.68927255e+00   -6.08604274e+00    3.68927255e+00   -2.81452241e-01    7.83785073e-02
   6.71616342e+08    9.81449205e-01   -1.51871120e-01    3.38123482e-02    7.83698639e-02    7.50999117e-04    2.23237295e-03    3.38123482e-02    7.83698640e-02    9.81449205e-01   -1.51871120e-01   -7.50999116e-04   -2.23237295e-03    5.73669640e+00   -3.97318148e+00   -5.73669640e+00    3.97318148e+00   -2.71051899e-01    8.28395227e-02
   7.53565929e+08    9.77202707e-01   -1.69233646e-01    4.08331637e-02    8.45039913e-02    9.10215692e-04    2.43464729e-03    4.08331637e-02    8.45039913e-02    9.77202707e-01   -1.69233646e-01   -9.10215693e-04   -2.43464729e-03    5.33267825e+00   -4.24195842e+00   -5.33267825e+00    4.24195842e+00   -2.59059860e-01    8.63189292e-02
   8.45514879e+08    9.72059813e-01   -1.88373525e-01    4.88766277e-02    9.04122001e-02    1.09530554e-03    2.64161761e-03    4.88766277e-02    9.04122001e-02    9.72059813e-01   -1.88373525e-01   -1.09530554e-03   -2.64161761e-03    4.87346175e+00   -4.48356047e+00   -4.87346175e+00    4.48356047e+00   -2.45483353e-01    8.83856737e-02
   9.48683298e+08    9.65846201e-01   -2.09411013e-01    5.79179297e-02    9.59165250e-02    1.30762987e-03    2.85016383e-03    5.79179297e-02    9.59165250e-02    9.65846201e-01   -2.09411014e-01   -1.30762987e-03   -2.85016383e-03    4.36175818e+00   -4.68474836e+00   -4.36175818e+00    4.68474836e+00   -2.30435221e-01    8.85655885e-02
   1.06444017e+09    9.58364197e-01   -2.32444509e-01    6.78790619e-02    1.00863199e-01    1.54785247e-03    3.05697424e-03    6.78790619e-02    1.00863199e-01    9.58364197e-01   -2.32444509e-01   -1.54785247e-03   -3.05697424e-03    3.80415871e+00   -4.83212321e+00   -3.80415871e+00    4.83212321e+00   -2.14155144e-01    8.63729771e-02
   1.19432151e+09    9.49408090e-01   -2.57537857e-01    7.86487806e-02    1.05155863e-01    1.81595269e-03    3.25885175e-03    7.86487805e-02    1.05155863e-01    9.49408090e-01   -2.57537857e-01   -1.81595269e-03   -3.25885175e-03    3.21136566e+00   -4.91349254e+00   -3.21136566e+00    4.91349254e+00   -1.97018544e-01    8.13524652e-02
   1.34005078e+09    9.38793399e-01   -2.84719642e-01    9.01289496e-02    1.08776063e-01    2.11141649e-03    3.45301489e-03    9.01289496e-02    1.08776063e-01    9.38793399e-01   -2.84719642e-01   -2.11141649e-03   -3.45301489e-03    2.59783810e+00   -4.91936345e+00   -2.59783810e+00    4.91936345e+00   -1.79527860e-01    7.31249808e-02
   1.50356170e+09    9.26390286e-01   -3.14009104e-01    1.02297958e-01    1.11769421e-01    2.43361084e-03    3.63729000e-03    1.02297958e-01    1.11769421e-01    9.26390286e-01   -3.14009104e-01   -2.43361084e-03   -3.63729000e-03    1.98079860e+00   -4.84426321e+00   -1.98079860e+00    4.84426321e+00   -1.62284600e-01    6.14287461e-02
   1.68702398e+09    9.12137227e-01   -3.45473195e-01    1.15263807e-01    1.14185636e-01    2.78228492e-03    3.81008669e-03    1.15263807e-01    1.14185636e-01    9.12137227e-01   -3.45473195e-01   -2.78228492e-03   -3.81008669e-03    1.37872553e+00   -4.68757605e+00   -1.37872553e+00    4.68757605e+00   -1.45946074e-01    4.61458592e-02
   1.89287203e+09    8.96010153e-01   -3.79296771e-01    1.29274661e-01    1.15985069e-01    3.15808174e-03    3.97008271e-03    1.29274661e-01    1.15985069e-01    8.96010153e-01   -3.79296771e-01   -3.15808174e-03   -3.97008271e-03    8.09619002e-01   -4.45368901e+00   -8.09619002e-01    4.45368901e+00   -1.31175707e-01    2.73082963e-02
