# Hz S RI R 2000 2000 4000
!      Freq              ReS11             ImS11             ReS12             ImS12             ReS13             ImS13      
!                        ReS21             ImS21             ReS22             ImS22             ReS23             ImS23      
!                        ReS31             ImS31             ReS32             ImS32             ReS33             ImS33      
   3.00000000e+06    9.99999953e-01   -6.58388809e-04    4.51022426e-07    2.91224356e-04    2.38132861e-08    2.40048306e-05
                     4.51022426e-07    2.91224356e-04    9.99999953e-01   -6.58388809e-04   -2.38132861e-08   -2.40048306e-05
                     2.22239024e+00   -2.92020997e-03   -2.22239024e+00    2.92020997e-03   -6.65205638e-01    4.71993990e-04
   3.36605536e+06    9.99999941e-01   -7.38724568e-04    5.67802854e-07    3.26758851e-04    2.99791483e-08    2.69338583e-05
                     5.67802854e-07    3.26758851e-04    9.99999941e-01   -7.38724568e-04   -2.99791483e-08   -2.69338583e-05
                     2.22238965e+00   -3.27652907e-03   -2.22238965e+00    3.27652907e-03   -6.65205527e-01    5.29585897e-04
   3.77677624e+06    9.99999926e-01   -8.28862844e-04    7.14820271e-07    3.66629107e-04    3.77415072e-08    3.02202796e-05
                     7.14820272e-07    3.66629107e-04    9.99999926e-01   -8.28862844e-04   -3.77415072e-08   -3.02202796e-05
                     2.22238890e+00   -3.67632552e-03   -2.22238890e+00    3.67632552e-03   -6.65205387e-01    5.94205050e-04
   4.23761263e+06    9.99999906e-01   -9.29999754e-04    8.99903549e-07    4.11364124e-04    4.75137357e-08    3.39077023e-05
                     8.99903549e-07    4.11364124e-04    9.99999906e-01   -9.29999754e-04   -4.75137357e-08   -3.39077023e-05
                     2.22238797e+00   -4.12490429e-03   -2.22238797e+00    4.12490429e-03   -6.65205210e-01    6.66708892e-04
   4.75467958e+06    9.99999882e-01   -1.04347738e-03    1.13290850e-06    4.61557432e-04    5.98162384e-08    3.80450549e-05
                     1.13290850e-06    4.61557432e-04    9.99999882e-01   -1.04347738e-03   -5.98162385e-08   -3.80450549e-05
                     2.22238679e+00   -4.62821761e-03   -2.22238679e+00    4.62821761e-03   -6.65204988e-01    7.48059483e-04
   5.33483823e+06    9.99999852e-01   -1.17080157e-03    1.42624264e-06    5.17874958e-04    7.53041655e-08    4.26872356e-05
                     1.42624264e-06    5.17874958e-04    9.99999852e-01   -1.17080157e-03   -7.53041654e-08   -4.26872356e-05
                     2.22238531e+00   -5.19294398e-03   -2.22238531e+00    5.19294398e-03   -6.65204709e-01    8.39336265e-04
   5.98578694e+06    9.99999813e-01   -1.31366194e-03    1.79552572e-06    5.81063850e-04    9.48023003e-08    4.78958404e-05
                     1.79552572e-06    5.81063850e-04    9.99999813e-01   -1.31366194e-03   -9.48023003e-08   -4.78958404e-05
                     2.22238344e+00   -5.82657674e-03   -2.22238344e+00    5.82657674e-03   -6.65204357e-01    9.41750384e-04
   6.71616342e+06    9.99999765e-01   -1.47395433e-03    2.26042125e-06    6.51962372e-04    1.19348982e-07    5.37399806e-05
                     2.26042125e-06    6.51962372e-04    9.99999765e-01   -1.47395433e-03   -1.19348982e-07   -5.37399806e-05
                     2.22238110e+00   -6.53752347e-03   -2.22238110e+00    6.53752347e-03   -6.65203913e-01    1.05666075e-03
   7.53565929e+06    9.99999704e-01   -1.65380591e-03    2.84568319e-06    7.31510999e-04    1.50251398e-07    6.02971989e-05
                     2.84568319e-06    7.31510999e-04    9.99999704e-01   -1.65380591e-03   -1.50251398e-07   -6.02971989e-05
                     2.22237814e+00   -7.33521751e-03   -2.22237814e+00    7.33521751e-03   -6.65203356e-01    1.18559208e-03
   8.45514879e+06    9.99999627e-01   -1.85560351e-03    3.58247348e-06    8.20764867e-04    1.89155194e-07    6.76544976e-05
                     3.58247348e-06    8.20764867e-04    9.99999627e-01   -1.85560351e-03   -1.89155194e-07   -6.76544976e-05
                     2.22237442e+00   -8.23024309e-03   -2.22237442e+00    8.23024309e-03   -6.65202653e-01    1.33025508e-03
   9.48683298e+06    9.99999530e-01   -2.08202527e-03    4.51002029e-06    9.20907716e-04    2.38132109e-07    7.59094928e-05
                     4.51002029e-06    9.20907716e-04    9.99999530e-01   -2.08202527e-03   -2.38132109e-07   -7.59094928e-05
                     2.22236973e+00   -9.23447572e-03   -2.22236973e+00    9.23447572e-03   -6.65201769e-01    1.49256918e-03
   1.06444017e+07    9.99999409e-01   -2.33607628e-03    5.67770557e-06    1.03326752e-03    2.99790236e-07    8.51717076e-05
                     5.67770499e-06    1.03326752e-03    9.99999409e-01   -2.33607628e-03   -2.99790346e-07   -8.51717076e-05
                     2.22236384e+00   -1.03612396e-02   -2.22236384e+00    1.03612396e-02   -6.65200656e-01    1.67468795e-03
   1.19432151e+07    9.99999256e-01   -2.62112847e-03    7.14769057e-06    1.15933403e-03    3.77413152e-07    9.55640241e-05
                     7.14769022e-06    1.15933403e-03    9.99999256e-01   -2.62112847e-03   -3.77413215e-07   -9.55640241e-05
                     2.22235641e+00   -1.16254842e-02   -2.22235641e+00    1.16254842e-02   -6.65199255e-01    1.87902765e-03
   1.34005078e+07    9.99999063e-01   -2.94096550e-03    8.99822243e-06    1.30077836e-03    4.75134536e-07    1.07224311e-04
                     8.99822467e-06    1.30077836e-03    9.99999063e-01   -2.94096550e-03   -4.75134192e-07   -1.07224311e-04
                     2.22234706e+00   -1.30439827e-02   -2.22234706e+00    1.30439827e-02   -6.65197491e-01    2.10829927e-03
   1.50356170e+07    9.99998820e-01   -3.29983307e-03    1.13277988e-05    1.45947499e-03    5.98157580e-07    1.20307249e-04
                     1.13277978e-05    1.45947499e-03    9.99998820e-01   -3.29983307e-03   -5.98157702e-07   -1.20307249e-04
                     2.22233530e+00   -1.46355538e-02   -2.22233530e+00    1.46355538e-02   -6.65195270e-01    2.36554444e-03
   1.68702398e+07    9.99998514e-01   -3.70249550e-03    1.42603884e-05    1.63752632e-03    7.53033960e-07    1.34986380e-04
                     1.42603861e-05    1.63752632e-03    9.99998514e-01   -3.70249550e-03   -7.53034313e-07   -1.34986380e-04
                     2.22232048e+00   -1.64213113e-02   -2.22232048e+00    1.64213113e-02   -6.65192474e-01    2.65417569e-03
   1.89287203e+07    9.99998128e-01   -4.15429921e-03    1.79520249e-05    1.83729019e-03    9.48011191e-07    1.51456399e-04
                     1.79520261e-05    1.83729019e-03    9.99998128e-01   -4.15429921e-03   -9.48010983e-07   -1.51456399e-04
                     2.22230183e+00   -1.84249435e-02   -2.22230183e+00    1.84249435e-02   -6.65188954e-01    2.97802163e-03
   2.12383735e+07    9.99997642e-01   -4.66124406e-03    2.25990907e-05    2.06141057e-03    1.19347100e-06    1.69935729e-04
                     2.25990918e-05    2.06141057e-03    9.99997642e-01   -4.66124406e-03   -1.19347087e-06   -1.69935729e-04
                     2.22227835e+00   -2.06730266e-02   -2.22227835e+00    2.06730266e-02   -6.65184523e-01    3.34137761e-03
   2.38298470e+07    9.99997030e-01   -5.23006354e-03    2.84487173e-05    2.31285182e-03    1.50248392e-06    1.90669407e-04
                     2.84487157e-05    2.31285182e-03    9.99997030e-01   -5.23006354e-03   -1.50248418e-06   -1.90669407e-04
                     2.22224879e+00   -2.31953761e-02   -2.22224879e+00    2.31953761e-02   -6.65178945e-01    3.74906246e-03
   2.67375281e+07    9.99996259e-01   -5.86831491e-03    3.58118741e-05    2.59493690e-03    1.89150464e-06    2.13932308e-04
                     3.58118760e-05    2.59493690e-03    9.99996259e-01   -5.86831491e-03   -1.89150437e-06   -2.13932308e-04
                     2.22221158e+00   -2.60254404e-02   -2.22221158e+00    2.60254404e-02   -6.65171922e-01    4.20648212e-03
   3.00000000e+07    9.99995285e-01   -6.58448060e-03    4.50798255e-05    2.91138984e-03    2.38124605e-06    2.40032771e-04
                     4.50798272e-05    2.91138984e-03    9.99995285e-01   -6.58448060e-03   -2.38124577e-06   -2.40032771e-04
                     2.22216473e+00   -2.92007424e-02   -2.22216473e+00    2.92007424e-02   -6.65163081e-01    4.71970092e-03
   3.36605536e+07    9.99994058e-01   -7.38808237e-03    5.67447676e-05    3.26638286e-03    2.99778378e-06    2.69316640e-04
                     5.67447677e-05    3.26638286e-03    9.99994058e-01   -7.38808237e-03   -2.99778373e-06   -2.69316640e-04
                     2.22210575e+00   -3.27633736e-02   -2.22210575e+00    3.27633736e-02   -6.65151951e-01    5.29552140e-03
   3.77677624e+07    9.99992508e-01   -8.28980985e-03    7.14257558e-05    3.66458850e-03    3.77394275e-06    3.02171801e-04
                     7.14257525e-05    3.66458850e-03    9.99992508e-01   -8.28980985e-03   -3.77394324e-06   -3.02171801e-04
                     2.22203151e+00   -3.67605473e-02   -2.22203151e+00    3.67605473e-02   -6.65137939e-01    5.94157368e-03
   4.23761263e+07    9.99990551e-01   -9.30166553e-03    8.99012045e-05    4.11123710e-03    4.75104457e-06    3.39033241e-04
                     8.99012077e-05    4.11123710e-03    9.99990551e-01   -9.30166553e-03   -4.75104411e-06   -3.39033241e-04
                     2.22193804e+00   -4.12452178e-02   -2.22193804e+00    4.12452178e-02   -6.65120299e-01    6.66641540e-03
   4.75467958e+07    9.99988077e-01   -1.04371284e-02    1.13149634e-04    4.61217981e-03    5.98110217e-06    3.80388706e-04
                     1.13149635e-04    4.61217981e-03    9.99988077e-01   -1.04371284e-02   -5.98110195e-06   -3.80388706e-04
                     2.22182037e+00   -4.62767731e-02   -2.22182037e+00    4.62767731e-02   -6.65098093e-01    7.47964347e-03
   5.33483823e+07    9.99984946e-01   -1.17113392e-02    1.42400604e-04    5.17395727e-03    7.52958931e-06    4.26785002e-04
                     1.42400601e-04    5.17395727e-03    9.99984946e-01   -1.17113392e-02   -7.52958984e-06   -4.26785001e-04
                     2.22167225e+00   -5.19218080e-02   -2.22167225e+00    5.19218080e-02   -6.65070138e-01    8.39201884e-03
   5.98578694e+07    9.99980979e-01   -1.31413096e-02    1.79198393e-04    5.80387371e-03    9.47891921e-06    4.78835016e-04
                     1.79198390e-04    5.80387371e-03    9.99980979e-01   -1.31413096e-02   -9.47891957e-06   -4.78835016e-04
                     2.22148578e+00   -5.82549874e-02   -2.22148578e+00    5.82549874e-02   -6.65034946e-01    9.41560568e-03
   6.71616342e+07    9.99975945e-01   -1.47461603e-02    2.25481383e-04    6.51007624e-03    1.19328210e-05    5.37225520e-04
                     2.25481383e-04    6.51007624e-03    9.99975945e-01   -1.47461603e-02   -1.19328210e-05   -5.37225520e-04
                     2.22125103e+00   -6.53600078e-02   -2.22125103e+00    6.53600078e-02   -6.64990643e-01    1.05639264e-02
   7.53565929e+07    9.99969544e-01   -1.65473917e-02    2.83680792e-04    7.30163809e-03    1.50218475e-05    6.02725810e-04
                     2.83680789e-04    7.30163809e-03    9.99969544e-01   -1.65473917e-02   -1.50218480e-05   -6.02725810e-04
                     2.22095553e+00   -7.33306672e-02   -2.22095553e+00    7.33306672e-02   -6.64934873e-01    1.18521336e-02
   8.45514879e+07    9.99961386e-01   -1.85691927e-02    3.56843069e-04    8.18864439e-03    1.89103020e-05    6.76197254e-04
                     3.56843068e-04    8.18864439e-03    9.99961386e-01   -1.85691927e-02   -1.89103022e-05   -6.76197254e-04
                     2.22058355e+00   -8.22720514e-02   -2.22058355e+00    8.22720514e-02   -6.64864668e-01    1.32972014e-02
   9.48683298e+07    9.99950957e-01   -2.08387941e-02    4.48781086e-04    9.18227767e-03    2.38049422e-05    7.58603782e-04
                     4.48781086e-04    9.18227767e-03    9.99950957e-01   -2.08387941e-02   -2.38049424e-05   -7.58603782e-04
                     2.22011531e+00   -9.23018470e-02   -2.22011531e+00    9.23018470e-02   -6.64776292e-01    1.49181358e-02
   1.06444017e+08    9.99937581e-01   -2.33868747e-02    5.64259878e-04    1.02948992e-02    2.99659248e-05    8.51023358e-04
                     5.64259878e-04    1.02948992e-02    9.99937581e-01   -2.33868747e-02   -2.99659249e-05   -8.51023358e-04
                     2.21952591e+00   -1.03551787e-01   -2.21952591e+00    1.03551787e-01   -6.64665047e-01    1.67362068e-02
   1.19432151e+08    9.99920350e-01   -2.62480301e-02    7.09223481e-04    1.15401202e-02    3.77205509e-05    9.54660417e-04
                     7.09223481e-04    1.15401202e-02    9.99920350e-01   -2.62480301e-02   -3.77205509e-05   -9.54660417e-04
                     2.21878404e+00   -1.16169237e-01   -2.21878404e+00    1.16169237e-01   -6.64525018e-01    1.87752017e-02
   1.34005078e+08    9.99898047e-01   -2.94613146e-02    8.91069741e-04    1.29328552e-02    4.74805248e-05    1.07085921e-03
                     8.91069742e-04    1.29328552e-02    9.99898047e-01   -2.94613146e-02   -4.74805246e-05   -1.07085921e-03
                     2.21785028e+00   -1.30318917e-01   -2.21785028e+00    1.30318918e-01   -6.64348764e-01    2.10617005e-02
   1.50356170e+08    9.99869013e-01   -3.30708713e-02    1.11897995e-03    1.44893453e-02    5.97636079e-05    1.20111794e-03
                     1.11897996e-03    1.44893453e-02    9.99869013e-01   -3.30708713e-02   -5.97636075e-05   -1.20111794e-03
                     2.21667509e+00   -1.46184769e-01   -2.21667508e+00    1.46184769e-01   -6.64126924e-01    2.36253709e-02
   1.68702398e+08    9.99830970e-01   -3.71266656e-02    1.40430937e-03    1.62271385e-02    7.52207616e-05    1.34710336e-03
                     1.40430937e-03    1.62271385e-02    9.99830970e-01   -3.71266656e-02   -7.52207616e-05   -1.34710336e-03
                     2.21519613e+00   -1.63971932e-01   -2.21519613e+00    1.63971932e-01   -6.63847725e-01    2.64992814e-02
   1.89287203e+08    9.99780763e-01   -4.16853394e-02    1.76104258e-03    1.81650062e-02    9.46701347e-05    1.51066555e-03
                     1.76104258e-03    1.81650062e-02    9.99780763e-01   -4.16853394e-02   -9.46701343e-05   -1.51066555e-03
                     2.21333507e+00   -1.83908822e-01   -2.21333507e+00    1.83908822e-01   -6.63496362e-01    2.97202260e-02
   2.12383735e+08    9.99713983e-01   -4.68112058e-02    2.20631420e-03    2.03227744e-02    1.19139554e-04    1.69385200e-03
                     2.20631421e-03    2.03227744e-02    9.99713983e-01   -4.68112058e-02   -1.19139554e-04   -1.69385200e-03
                     2.21099347e+00   -2.06249251e-01   -2.21099347e+00    2.06249251e-01   -6.63054225e-01    3.33290518e-02
   2.38298470e+08    9.99624427e-01   -5.25773990e-02    2.76098982e-03    2.27210436e-02    1.49919558e-04    1.89892013e-03
                     2.76098981e-03    2.27210436e-02    9.99624427e-01   -5.25773990e-02   -1.49919558e-04   -1.89892013e-03
                     2.20804766e+00   -2.31274511e-01   -2.20804766e+00    2.31274511e-01   -6.62497929e-01    3.73709734e-02
   2.67375281e+08    9.99503334e-01   -5.90671907e-02    3.45029446e-03    2.53807678e-02    1.88629426e-04    2.12834654e-03
                     3.45029446e-03    2.53807678e-02    9.99503334e-01   -5.90671907e-02   -1.88629426e-04   -2.12834654e-03
                     2.20434244e+00   -2.59295300e-01   -2.20434244e+00    2.59295300e-01   -6.61798101e-01    4.18958542e-02
   3.00000000e+08    9.99338291e-01   -6.63754711e-02    4.30446780e-03    2.83226684e-02    2.37299146e-04    2.38483080e-03
                     4.30446780e-03    2.83226684e-02    9.99338291e-01   -6.63754711e-02   -2.37299146e-04   -2.38483080e-03
                     2.19968312e+00   -2.90653296e-01   -2.19968311e+00    2.90653296e-01   -6.60917876e-01    4.69584165e-02
   3.36605536e+08    9.99111729e-01   -7.46103695e-02    5.35941726e-03    3.15664604e-02    2.98470778e-04    2.67129043e-03
                     5.35941727e-03    3.15664604e-02    9.99111729e-01   -7.46103695e-02   -2.98470779e-04   -2.67129043e-03
                     2.19382571e+00   -3.25722119e-01   -2.19382571e+00    3.25722119e-01   -6.59811014e-01    5.26183343e-02
   3.77677624e+08    9.98798860e-01   -8.38949582e-02    6.65733745e-03    3.51298804e-02    3.75323183e-04    2.99084224e-03
                     6.65733745e-03    3.51298804e-02    9.98798860e-01   -8.38949582e-02   -3.75323183e-04   -2.99084224e-03
                     2.18646487e+00   -3.64907268e-01   -2.18646487e+00    3.64907268e-01   -6.58419578e-01    5.89401328e-02
   4.23761263e+08    9.98364947e-01   -9.43689426e-02    8.24727011e-03    3.90275144e-02    4.71824498e-04    3.34676339e-03
                     8.24727011e-03    3.90275144e-02    9.98364947e-01   -9.43689426e-02   -4.71824498e-04   -3.34676339e-03
                     2.17721901e+00   -4.08644461e-01   -2.17721901e+00    4.08644461e-01   -6.56671061e-01    6.59927921e-02
   4.75467958e+08    9.97761749e-01   -1.06190194e-01    1.01855957e-02    4.32694242e-02    5.92916963e-04    3.74242260e-03
                     1.01855957e-02    4.32694242e-02    9.97761749e-01   -1.06190194e-01   -5.92916963e-04   -3.74242260e-03
                     2.16561219e+00   -4.57395578e-01   -2.16561219e+00    4.57395578e-01   -6.54474871e-01    7.38489046e-02
   5.33483823e+08    9.96923062e-01   -1.19535949e-01    1.25364699e-02    4.78595469e-02    7.44738392e-04    4.18116835e-03
                     1.25364699e-02    4.78595469e-02    9.96923062e-01   -1.19535949e-01   -7.44738392e-04   -4.18116835e-03
                     2.15105224e+00   -5.11641056e-01   -2.15105224e+00    5.11641056e-01   -6.51718040e-01    8.25831770e-02
   5.98578694e+08    9.95759217e-01   -1.34603470e-01    1.53722230e-02    5.27937782e-02    9.34883473e-04    4.66615602e-03
                     1.53722230e-02    5.27937782e-02    9.95759217e-01   -1.34603470e-01   -9.34883472e-04   -4.66615602e-03
                     2.13280477e+00   -5.71867168e-01   -2.13280477e+00    5.71867168e-01   -6.48260061e-01    9.22699837e-02
   6.71616342e+08    9.94150418e-01   -1.51609983e-01    1.87736800e-02    5.80575490e-02    1.17270538e-03    5.20008931e-03
                     1.87736800e-02    5.80575490e-02    9.94150418e-01   -1.51609983e-01   -1.17270538e-03   -5.20008931e-03
                     2.10996259e+00   -6.38546043e-01   -2.10996259e+00    6.38546043e-01   -6.43926743e-01    1.02979565e-01
   7.53565929e+08    9.91938622e-01   -1.70791637e-01    2.28301673e-02    6.36226021e-02    1.46965304e-03    5.78484329e-03
                     2.28301673e-02    6.36226021e-02    9.91938622e-01   -1.70791637e-01   -1.46965304e-03   -5.78484329e-03
                     2.08141086e+00   -7.12105518e-01   -2.08141086e+00    7.12105518e-01   -6.38503036e-01    1.14772312e-01
   8.45514879e+08    9.88917423e-01   -1.92401062e-01    2.76385870e-02    6.94427095e-02    1.83963023e-03    6.42092620e-03
                     2.76385870e-02    6.94427095e-02    9.88917423e-01   -1.92401062e-01   -1.83963023e-03   -6.42092620e-03
                     2.04578874e+00   -7.92885034e-01   -2.04578874e+00    7.92885035e-01   -6.31724887e-01    1.27690397e-01
   9.48683298e+08    9.84819022e-01   -2.16702502e-01    3.33003897e-02    7.54484609e-02    2.29934713e-03    7.10672606e-03
                     3.33003897e-02    7.54484609e-02    9.84819022e-01   -2.16702502e-01   -2.29934713e-03   -7.10672606e-03
                     2.00144945e+00   -8.81072685e-01   -2.00144945e+00    8.81072685e-01   -6.23270345e-01    1.41745743e-01
   1.06444017e+09    9.79297237e-01   -2.43962185e-01    3.99147898e-02    8.15423625e-02    2.86861037e-03    7.83747651e-03
                     3.99147898e-02    8.15423625e-02    9.79297237e-01   -2.43962185e-01   -2.86861037e-03   -7.83747651e-03
