# Hz S RI R 2000 2000 4000
!      Freq              ReS11             ImS11             ReS12             ImS12             ReS13             ImS13      
!                        ReS21             ImS21             ReS22             ImS22             ReS23             ImS23      
!                        ReS31             ImS31             ReS32             ImS32             ReS33             ImS33      
   3.00000000e+06    9.99998748e-01   -9.98636935e-04   -7.40420928e-07    6.05476745e-06    3.35244704e-09    1.42535040e-06
                    -7.40420928e-07    6.05476745e-06    9.99998748e-01   -9.98636935e-04   -3.35244702e-09   -1.42535040e-06
                     5.48491228e-03   -1.60221839e-05   -5.48491228e-03    1.60221839e-05    3.22121952e-01   -8.21198323e-04
   3.36605536e+06    9.99998423e-01   -1.12048522e-03   -9.32062915e-07    6.79733519e-06    4.22047983e-09    1.59926844e-06
                    -9.32062915e-07    6.79733519e-06    9.99998423e-01   -1.12048522e-03   -4.22047980e-09   -1.59926844e-06
                     5.48490791e-03   -1.79771819e-05   -5.48490791e-03    1.79771819e-05    3.22121820e-01   -9.21399581e-04
   3.77677624e+06    9.99998015e-01   -1.25719966e-03   -1.17328390e-06    7.63206609e-06    5.31326779e-09    1.79440727e-06
                    -1.17328390e-06    7.63206609e-06    9.99998015e-01   -1.25719966e-03   -5.31326779e-09   -1.79440727e-06
                     5.48490240e-03   -2.01707241e-05   -5.48490240e-03    2.01707241e-05    3.22121653e-01   -1.03382720e-03
   4.23761263e+06    9.99997501e-01   -1.41059354e-03   -1.47689661e-06    8.57084701e-06    6.68900547e-09    2.01335604e-06
                    -1.47689661e-06    8.57084701e-06    9.99997501e-01   -1.41059354e-03   -6.68900545e-09   -2.01335604e-06
                     5.48489546e-03   -2.26319165e-05   -5.48489546e-03    2.26319165e-05    3.22121444e-01   -1.15997302e-03
   4.75467958e+06    9.99996855e-01   -1.58270113e-03   -1.85901699e-06    9.62727930e-06    8.42095515e-09    2.25901977e-06
                    -1.85901699e-06    9.62727930e-06    9.99996855e-01   -1.58270113e-03   -8.42095522e-09   -2.25901977e-06
                     5.48488673e-03   -2.53934164e-05   -5.48488673e-03    2.53934164e-05    3.22121181e-01   -1.30151087e-03
   5.33483823e+06    9.99996041e-01   -1.77580457e-03   -2.33991110e-06    1.08169964e-05    1.06013485e-08    2.53465783e-06
                    -2.33991110e-06    1.08169964e-05    9.99996041e-01   -1.77580457e-03   -1.06013485e-08   -2.53465783e-06
                     5.48487574e-03   -2.84918656e-05   -5.48487574e-03    2.84918655e-05    3.22120849e-01   -1.46031885e-03
   5.98578694e+06    9.99995016e-01   -1.99246387e-03   -2.94505648e-06    1.21580647e-05    1.33462975e-08    2.84392715e-06
                    -2.94505648e-06    1.21580647e-05    9.99995016e-01   -1.99246387e-03   -1.33462976e-08   -2.84392715e-06
                     5.48486191e-03   -3.19683759e-05   -5.48486190e-03    3.19683759e-05    3.22120432e-01   -1.63850418e-03
   6.71616342e+06    9.99993727e-01   -2.23555071e-03   -3.70647057e-06    1.36714959e-05    1.68019781e-08    3.19093068e-06
                    -3.70647057e-06    1.36714959e-05    9.99993727e-01   -2.23555071e-03   -1.68019781e-08   -3.19093068e-06
                     5.48484448e-03   -3.58690752e-05   -5.48484448e-03    3.58690752e-05    3.22119906e-01   -1.83843120e-03
   7.53565929e+06    9.99992105e-01   -2.50828606e-03   -4.66437096e-06    1.53819098e-05    2.11524135e-08    3.58027172e-06
                    -4.66437096e-06    1.53819098e-05    9.99992105e-01   -2.50828606e-03   -2.11524134e-08   -3.58027172e-06
                     5.48482255e-03   -4.02457184e-05   -5.48482255e-03    4.02457184e-05    3.22119245e-01   -2.06275270e-03
   8.45514879e+06    9.99990063e-01   -2.81428243e-03   -5.86924627e-06    1.73184007e-05    2.66292731e-08    4.01711485e-06
                    -5.86924627e-06    1.73184007e-05    9.99990063e-01   -2.81428243e-03   -2.66292732e-08   -4.01711485e-06
                     5.48479494e-03   -4.51563739e-05   -5.48479494e-03    4.51563739e-05    3.22118412e-01   -2.31444514e-03
   9.48683298e+06    9.99987495e-01   -3.15759100e-03   -7.38443292e-06    1.95156831e-05    3.35242089e-08    4.50725426e-06
                    -7.38443292e-06    1.95156831e-05    9.99987495e-01   -3.15759100e-03   -3.35242088e-08   -4.50725426e-06
                     5.48476018e-03   -5.06661932e-05   -5.48476018e-03    5.06661932e-05    3.22117364e-01   -2.59684811e-03
   1.06444017e+07    9.99984265e-01   -3.54275431e-03   -9.28931136e-06    2.20156180e-05    4.22043838e-08    5.05719036e-06
                    -9.28931136e-06    2.20156180e-05    9.99984265e-01   -3.54275431e-03   -4.22043836e-08   -5.05719036e-06
                     5.48471642e-03   -5.68482744e-05   -5.48471642e-03    5.68482743e-05    3.22116044e-01   -2.91370859e-03
   1.19432151e+07    9.99980201e-01   -3.97486499e-03   -1.16832547e-05    2.48692626e-05    5.31320211e-08    5.67421556e-06
                    -1.16832547e-05    2.48692626e-05    9.99980201e-01   -3.97486499e-03   -5.31320210e-08   -5.67421556e-06
                     5.48466133e-03   -6.37846301e-05   -5.48466133e-03    6.37846301e-05    3.22114382e-01   -3.26923070e-03
   1.34005078e+07    9.99975093e-01   -4.45963121e-03   -1.46904820e-05    2.81396375e-05    6.68890136e-08    6.36651051e-06
                    -1.46904820e-05    2.81396375e-05    9.99975093e-01   -4.45963121e-03   -6.68890137e-08   -6.36651051e-06
                     5.48459198e-03   -7.15672738e-05   -5.48459198e-03    7.15672738e-05    3.22112290e-01   -3.66813138e-03
   1.50356170e+07    9.99968672e-01   -5.00344946e-03   -1.84659833e-05    3.19054797e-05    8.42079016e-08    7.14325179e-06
                    -1.84659833e-05    3.19054797e-05    9.99968672e-01   -5.00344946e-03   -8.42079024e-08   -7.14325179e-06
                     5.48450468e-03   -8.02994371e-05   -5.48450467e-03    8.02994371e-05    3.22109657e-01   -4.11570291e-03
   1.68702398e+07    9.99960605e-01   -5.61348525e-03   -2.32026907e-05    3.62663429e-05    1.06010870e-07    8.01473252e-06
                    -2.32026907e-05    3.62663429e-05    9.99960605e-01   -5.61348525e-03   -1.06010870e-07   -8.01473252e-06
                     5.48439476e-03   -9.00969350e-05   -5.48439476e-03    9.00969349e-05    3.22106341e-01   -4.61788305e-03
   1.89287203e+07    9.99950475e-01   -6.29776250e-03   -2.91400589e-05    4.13495373e-05    1.33458831e-07    8.99249725e-06
                    -2.91400589e-05    4.13495373e-05    9.99950475e-01   -6.29776250e-03   -1.33458832e-07   -8.99249725e-06
                     5.48425639e-03   -1.01089696e-04   -5.48425639e-03    1.01089696e-04    3.22102167e-01   -5.18133366e-03
   2.12383735e+07    9.99937763e-01   -7.06526204e-03   -3.65741734e-05    4.73195608e-05    1.68013214e-07    1.00894928e-05
                    -3.65741734e-05    4.73195608e-05    9.99937763e-01   -7.06526204e-03   -1.68013213e-07   -1.00894928e-05
                     5.48408219e-03   -1.13423476e-04   -5.48408219e-03    1.13423476e-04    3.22096913e-01   -5.81352889e-03
   2.38298470e+07    9.99921824e-01   -7.92602998e-03   -4.58694125e-05    5.43908811e-05    2.11513724e-07    1.13202369e-05
                    -4.58694125e-05    5.43908811e-05    9.99921824e-01   -7.92602998e-03   -2.11513726e-07   -1.13202369e-05
                     5.48386289e-03   -1.27261781e-04   -5.48386289e-03    1.27261781e-04    3.22090298e-01   -6.52285409e-03
   2.67375281e+07    9.99901857e-01   -8.89129622e-03   -5.74715055e-05    6.28451700e-05    2.66276233e-07    1.27010060e-05
                    -5.74715055e-05    6.28451700e-05    9.99901857e-01   -8.89129622e-03   -2.66276233e-07   -1.27010060e-05
                     5.48358681e-03   -1.42788016e-04   -5.48358681e-03    1.42788015e-04    3.22081970e-01   -7.31871660e-03
   3.00000000e+07    9.99876876e-01   -9.97360373e-03   -7.19215255e-05    7.30543635e-05    3.35215940e-07    1.42500444e-05
                    -7.19215255e-05    7.30543635e-05    9.99876876e-01   -9.97360373e-03   -3.35215943e-07   -1.42500444e-05
                     5.48323926e-03   -1.60207891e-04   -5.48323926e-03    1.60207891e-04    3.22071486e-01   -8.21167002e-03
   3.36605536e+07    9.99845670e-01   -1.11869486e-02   -8.98698635e-05    8.55111884e-05    4.22001998e-07    1.59877977e-05
                    -8.98698636e-05    8.55111884e-05    9.99845670e-01   -1.11869486e-02   -4.22002798e-07   -1.59877975e-05
                     5.48280173e-03   -1.79752117e-04   -5.48280173e-03    1.79752117e-04    3.22058288e-01   -9.21355339e-03
   3.77677624e+07    9.99806762e-01   -1.25469316e-02   -1.12088495e-04    1.00868984e-04    5.31254682e-07    1.79371700e-05
                    -1.12088495e-04    1.00868984e-04    9.99806762e-01   -1.25469316e-02   -5.31254388e-07   -1.79371701e-05
                     5.48225093e-03   -2.01679412e-04   -5.48225093e-03    2.01679412e-04    3.22041673e-01   -1.03376471e-02
   4.23761263e+07    9.99758361e-01   -1.40709214e-02   -1.39478813e-04    1.19992635e-04    6.68785970e-07    2.01238105e-05
                    -1.39478813e-04    1.19992635e-04    9.99758361e-01   -1.40709214e-02   -6.68786129e-07   -2.01238104e-05
                     5.48155755e-03   -2.26279856e-04   -5.48155755e-03    2.26279856e-04    3.22020757e-01   -1.15988475e-02
   4.75467958e+07    9.99698319e-01   -1.57782313e-02   -1.73070923e-04    1.44022025e-04    8.41914232e-07    2.25764259e-05
                    -1.73070923e-04    1.44022025e-04    9.99698319e-01   -1.57782313e-02   -8.41913887e-07   -2.25764260e-05
                     5.48068469e-03   -2.53878640e-04   -5.48068469e-03    2.53878640e-04    3.21994426e-01   -1.30138619e-02
   5.33483823e+07    9.99624084e-01   -1.76903113e-02   -2.14008690e-04    1.74448288e-04    1.05984713e-06    2.53271260e-05
                    -2.14008689e-04    1.74448288e-04    9.99624084e-01   -1.76903113e-02   -1.05984740e-06   -2.53271260e-05
                     5.47958590e-03   -2.84840229e-04   -5.47958590e-03    2.84840228e-04    3.21961278e-01   -1.46014274e-02
   5.98578694e+07    9.99532661e-01   -1.98309617e-02   -2.63513194e-04    2.13200989e-04    1.33417417e-06    2.84117958e-05
                    -2.63513194e-04    2.13200989e-04    9.99532661e-01   -1.98309617e-02   -1.33417381e-06   -2.84117959e-05
                     5.47820273e-03   -3.19572983e-04   -5.47820273e-03    3.19572983e-04    3.21919550e-01   -1.63825542e-02
   6.71616342e+07    9.99420590e-01   -2.22265763e-02   -3.22816236e-04    2.62740783e-04    1.67947546e-06    3.18704989e-05
                    -3.22816236e-04    2.62740783e-04    9.99420590e-01   -2.22265763e-02   -1.67947555e-06   -3.18704989e-05
                     5.47646163e-03   -3.58534286e-04   -5.47646163e-03    3.58534285e-04    3.21867021e-01   -1.83807983e-02
   7.53565929e+07    9.99283922e-01   -2.49064294e-02   -3.93056006e-04    3.26147033e-04    2.11409651e-06    3.57479041e-05
                    -3.93056006e-04    3.26147033e-04    9.99283922e-01   -2.49064294e-02   -2.11409678e-06   -3.57479040e-05
                     5.47427003e-03   -4.02236184e-04   -5.47427003e-03    4.02236184e-04    3.21800898e-01   -2.06225641e-02
   8.45514879e+07    9.99118226e-01   -2.79030287e-02   -4.75130470e-04    4.07183843e-04    2.66111358e-06    4.00937306e-05
                    -4.75130470e-04    4.07183843e-04    9.99118226e-01   -2.79030287e-02   -2.66111292e-06   -4.00937310e-05
                     5.47151148e-03   -4.51251632e-04   -5.47151148e-03    4.51251567e-04    3.21717662e-01   -2.31374415e-02
   9.48683298e+07    9.98918583e-01   -3.12525580e-02   -5.69511582e-04    5.10322525e-04    3.34954561e-06    4.49632017e-05
                    -5.69511582e-04    5.10322525e-04    9.98918583e-01   -3.12525580e-02   -3.34954660e-06   -4.49632011e-05
                     5.46803947e-03   -5.06221038e-04   -5.46803947e-03    5.06221059e-04    3.21612889e-01   -2.59585800e-02
   1.06444017e+08    9.98679556e-01   -3.49954399e-02   -6.76035865e-04    6.40696661e-04    4.21588262e-06    5.04174802e-05
                    -6.76035865e-04    6.40696662e-04    9.98679556e-01   -3.49954399e-02   -4.21588296e-06   -5.04174801e-05
                     5.46366984e-03   -5.67860065e-04   -5.46366965e-03    5.67859975e-04    3.21481012e-01   -2.91231017e-02
   1.19432151e+08    9.98395105e-01   -3.91770396e-02   -7.93702260e-04    8.03971529e-04    5.30598314e-06    5.65240715e-05
                    -7.93702261e-04    8.03971529e-04    9.98395105e-01   -3.91770396e-02   -5.30598339e-06   -5.65240715e-05
                     5.45817089e-03   -6.36966981e-04   -5.45817029e-03    6.36967003e-04    3.21315026e-01   -3.26725564e-02
   1.34005078e+08    9.98058357e-01   -4.38485164e-02   -9.20521825e-04    1.00612594e-03    6.67746269e-06    6.33571327e-05
                    -9.20521825e-04    1.00612594e-03    9.98058357e-01   -4.38485164e-02   -6.67746287e-06   -6.33571328e-05
                     5.45125094e-03   -7.14430884e-04   -5.45125060e-03    7.14430933e-04    3.21106121e-01   -3.66534197e-02
   1.50356170e+08    9.97661190e-01   -4.90678011e-02   -1.05346771e-03    1.25317090e-03    8.40266646e-06    7.09976377e-05
                    -1.05346771e-03    1.25317090e-03    9.97661190e-01   -4.90678011e-02   -8.40266613e-06   -7.09976362e-05
                     5.44254435e-03   -8.01240557e-04   -5.44254422e-03    8.01240698e-04    3.20843219e-01   -4.11176353e-02
   1.68702398e+08    9.97193564e-01   -5.49006478e-02   -1.18856044e-03    1.55085931e-03    1.05723741e-05    7.95332922e-05
                    -1.18856044e-03    1.55085931e-03    9.97193564e-01   -5.49006478e-02   -1.05723711e-05   -7.95332898e-05
                     5.43159154e-03   -8.98493064e-04   -5.43159141e-03    8.98493166e-04    3.20512394e-01   -4.61231992e-02
   1.89287203e+08    9.96642559e-01   -6.14216841e-02   -1.32109078e-03    1.90446109e-03    1.33003933e-05    8.90580728e-05
                    -1.32109078e-03    1.90446109e-03    9.96642559e-01   -6.14216841e-02   -1.33003944e-05   -8.90580735e-05
                     5.41781566e-03   -1.00740069e-03   -5.41781511e-03    1.00740057e-03    3.20096145e-01   -5.17347809e-02
   2.12383735e+08    9.95991137e-01   -6.87153847e-02   -1.44593881e-03    2.31867638e-03    1.67292644e-05    9.96711940e-05
                    -1.44593881e-03    2.31867638e-03    9.95991137e-01   -6.87153847e-02   -1.67292668e-05   -9.96711953e-05
                     5.40049231e-03   -1.12929884e-03   -5.40049247e-03    1.12929882e-03    3.19572490e-01   -5.80243705e-02
   2.38298470e+08    9.95216650e-01   -7.68769155e-02   -1.55791042e-03    2.79772991e-03    2.10372515e-05    1.11475210e-04
                    -1.55791042e-03    2.79772991e-03    9.95216650e-01   -7.68769155e-02   -2.10372511e-05   -1.11475210e-04
                     5.37871589e-03   -1.26565052e-03   -5.37871569e-03    1.26565037e-03    3.18913839e-01   -6.50719431e-02
   2.67375281e+08    9.94289141e-01   -8.60128362e-02   -1.65199853e-03    3.34564351e-03    2.64469121e-05    1.24572887e-04
                    -1.65199854e-03    3.34564351e-03    9.94289141e-01   -8.60128362e-02   -2.64469114e-05   -1.24572886e-04
                     5.35135085e-03   -1.41804729e-03   -5.35135095e-03    1.41804720e-03    3.18085579e-01   -7.29661058e-02
   3.00000000e+08    9.93169442e-01   -9.62416811e-02   -1.72349148e-03    3.96663814e-03    3.32355013e-05    1.39062291e-04
                    -1.72349148e-03    3.96663814e-03    9.93169442e-01   -9.62416811e-02   -3.32355010e-05   -1.39062291e-04
                     5.31697995e-03   -1.58820478e-03   -5.31698006e-03    1.58820477e-03    3.17044338e-01   -8.18046933e-02
   3.36605536e+08    9.91807027e-01   -1.07694449e-01   -1.76788694e-03    4.66559237e-03    4.17474410e-05    1.55029345e-04
                    -1.76788694e-03    4.66559237e-03    9.91807027e-01   -1.07694449e-01   -4.17474409e-05   -1.55029345e-04
                     5.27383507e-03   -1.77795068e-03   -5.27383515e-03    1.77795066e-03    3.15735827e-01   -9.16952542e-02
   3.77677624e+08    9.90137542e-01   -1.20515013e-01   -1.78060667e-03    5.44848462e-03    5.24090670e-05    1.72536816e-04
                    -1.78060667e-03    5.44848462e-03    9.90137542e-01   -1.20515013e-01   -5.24090643e-05   -1.72536815e-04
                     5.21971705e-03   -1.98919832e-03   -5.21971709e-03    1.98919830e-03    3.14092199e-01   -1.02755343e-01
   4.23761263e+08    9.88079861e-01   -1.34860393e-01   -1.75653022e-03    6.32276638e-03    6.57456908e-05    1.91608360e-04
                    -1.75653022e-03    6.32276638e-03    9.88079861e-01   -1.34860393e-01   -6.57456937e-05   -1.91608360e-04
                     5.15189903e-03   -2.22390396e-03   -5.15189905e-03    2.22390409e-03    3.12028816e-01   -1.15112498e-01
   4.75467958e+08    9.85532547e-01   -1.50900809e-01   -1.68936715e-03    7.29763594e-03    8.24008016e-05    2.12205766e-04
                    -1.68936715e-03    7.29763594e-03    9.85532547e-01   -1.50900809e-01   -8.24007956e-05   -2.12205766e-04
                     5.06701353e-03   -2.48399776e-03   -5.06701367e-03    2.48399777e-03    3.09440358e-01   -1.28903731e-01
   5.33483823e+08    9.82369552e-01   -1.68819298e-01   -1.57087223e-03    8.38419503e-03    1.03156606e-04    2.34196975e-04
                    -1.57087223e-03    8.38419503e-03    9.82369552e-01   -1.68819298e-01   -1.03156608e-04   -2.34196974e-04
                     4.96092358e-03   -2.77127908e-03   -4.96092363e-03    2.77127920e-03    3.06196153e-01   -1.44274308e-01
   5.98578694e+08    9.78435065e-01   -1.88810669e-01   -1.38988474e-03    9.59546487e-03    1.28954558e-04    2.57311833e-04
                    -1.38988474e-03    9.59546487e-03    9.78435065e-01   -1.88810669e-01   -1.28954558e-04   -2.57311833e-04
                     4.82858003e-03   -3.08726354e-03   -4.82857991e-03    3.08726358e-03    3.02134703e-01   -1.61375485e-01
   6.71616342e+08    9.73537407e-01   -2.11079460e-01   -1.13115328e-03    1.09462108e-02    1.60912865e-04    2.81081840e-04
                    -1.13115328e-03    1.09462108e-02    9.73537407e-01   -2.11079460e-01   -1.60912865e-04   -2.81081841e-04
                     4.66387300e-03   -3.43296448e-03   -4.66387304e-03    3.43296456e-03    2.97057375e-01   -1.80360800e-01
   7.53565929e+08    9.67441959e-01   -2.35836466e-01   -7.73901354e-04    1.24524770e-02    2.00336340e-04    3.04759660e-04
                    -7.73901355e-04    1.24524770e-02    9.67441959e-01   -2.35836466e-01   -2.00336340e-04   -3.04759661e-04
                     4.45949148e-03   -3.80858997e-03   -4.45949142e-03    3.80858997e-03    2.90721365e-01   -2.01380362e-01
   8.45514879e+08    9.59863170e-01   -2.63293354e-01   -2.90108108e-04    1.41306681e-02    2.48710758e-04    3.27214054e-04
                    -2.90108108e-04    1.41306681e-02    9.59863170e-01   -2.63293354e-01   -2.48710758e-04   -3.27214055e-04
                     4.20681265e-03   -4.21313211e-03   -4.20681266e-03    4.21313210e-03    2.82832189e-01   -2.24572485e-01
   9.48683298e+08    9.50455825e-01   -2.93654717e-01    3.57462578e-04    1.59959355e-02    3.07669956e-04    3.46796825e-04
                     3.57462578e-04    1.59959355e-02    9.50455825e-01   -2.93654717e-01   -3.07669956e-04   -3.46796825e-04
                     3.89586322e-03   -4.64382769e-03   -3.89586318e-03    4.64382769e-03    2.73036244e-01   -2.50051848e-01
   1.06444017e+09    9.38805914e-01   -3.27106846e-01    1.21733565e-03    1.80595596e-02    3.78918526e-04    3.61181111e-04
                     1.21733565e-03    1.80595596e-02    9.38805914e-01   -3.27106846e-01   -3.78918526e-04   -3.61181112e-04
